(1713129506.433194) can0 18F00400#F17DFF0000FFF0FF
(1713129506.433818) can0 18FE6CEE#3A108010FFFF0000
(1713129506.517734) can0 18F00400#F17DFF0000FFF0FF
(1713129506.518197) can0 18FE6CEE#3A108010FFFF0000
(1713129506.518817) can0 18F0010B#0000000000410B7F
(1713129506.519314) can0 18F00010#007D7DF4107D007D
(1713129506.519950) can0 18FEF100#C300000400001F00
(1713129506.520432) can0 18F00503#7DFFFF7D20202020
(1713129506.521057) can0 18FEFC21#FF0000FFFFFFFFFF
(1713129506.521693) can0 18FEF227#FFFFFFFFFFFF00FF
(1713129506.522189) can0 18FEEE00#28FF1F22FFFFFFFF
(1713129506.522807) can0 18FEF500#FFFFFFFF24FFFFFF
(1713129506.523440) can0 18FEAE30#FFFF0000FFFFFFFF
(1713129506.523938) can0 18FEC1EE#0000000000000000
(1713129506.600964) can0 18F00400#F17DFF0000FFF0FF
(1713129506.601579) can0 18FE6CEE#3A108010FFFF0000
(1713129506.692567) can0 18F00400#F17DFF0000FFF0FF
(1713129506.693058) can0 18FE6CEE#3A108010FFFF0000
(1713129506.693748) can0 18F0010B#0000000000410B7F
(1713129506.694200) can0 18F00010#007D7DF4107D007D
(1713129506.694830) can0 18FEF100#C300000400001F00
(1713129506.695432) can0 18F00503#7DFFFF7D20202020
(1713129506.695932) can0 18FEFC21#FF0000FFFFFFFFFF
(1713129506.696558) can0 18FEF227#FFFFFFFFFFFF00FF
(1713129506.727570) can0 18ECFF17#202A0006FFCAFE00
(1713129506.776721) can0 18EBFF17#01C0FF13F824FE23
(1713129506.785438) can0 18F00400#F17DFF0000FFF0FF
(1713129506.785934) can0 18FE6CEE#3A108010FFFF0000
(1713129506.827112) can0 18FFA117#0300C3004C00C0FF
(1713129506.827570) can0 18EBFF17#02F764FE23F724FE
(1713129506.873695) can0 18F00400#F17DFF0000FFF0FF
(1713129506.874196) can0 18FE6CEE#3A108010FFFF0000
(1713129506.874819) can0 18F0010B#0000000000410B7F
(1713129506.875443) can0 18F00010#007D7DF4107D007D
(1713129506.875951) can0 18FEF100#C300000400001F00
(1713129506.876559) can0 18F00503#7DFFFF7D20202020
(1713129506.877058) can0 18EBFF17#0353F524FE53F744
(1713129506.877684) can0 18FEFC21#FF0000FFFFFFFFFF
(1713129506.878318) can0 18FEF227#FFFFFFFFFFFF00FF
(1713129506.927443) can0 18EBFF17#04FE53F784FE4401
(1713129506.958961) can0 18F00400#F17DFF0000FFF0FF
(1713129506.959443) can0 18FE6CEE#3A108010FFFF0000
(1713129506.976727) can0 18EBFF17#05248143F5C4FE43
(1713129507.027101) can0 18EBFF17#06F5E4FE43F86481
(1713129507.041442) can0 18F00400#F17DFF0000FFF0FF
(1713129507.041946) can0 18FE6CEE#3A108010FFFF0000
(1713129507.042569) can0 18F0010B#0000000000410B7F
(1713129507.043059) can0 18F00010#007D7DF4107D007D
(1713129507.043684) can0 18FEF100#C300000400001F00
(1713129507.044309) can0 18F00503#7DFFFF7D20202020
(1713129507.044819) can0 18FEFC21#FF0000FFFFFFFFFF
(1713129507.045438) can0 18FEF227#FFFFFFFFFFFF00FF
(1713129507.123820) can0 18F00400#F17DFF0000FFF0FF
(1713129507.124332) can0 18FE6CEE#3A108010FFFF0000
(1713129507.127433) can0 18DEEE17#FCFFFFFFFFFFFFFF
(1713129507.208820) can0 18F00400#F17DFF0000FFF0FF
(1713129507.209436) can0 18FE6CEE#3A108010FFFF0000
(1713129507.209995) can0 18F0010B#0000000000410B7F
(1713129507.210584) can0 18F00010#007D7DF4107D007D
(1713129507.211208) can0 18FEF100#C300000400001F00
(1713129507.211812) can0 18F00503#7DFFFF7D20202020
(1713129507.212311) can0 18FEFC21#FF0000FFFFFFFFFF
(1713129507.212935) can0 18FEF227#FFFFFFFFFFFF00FF
(1713129507.291197) can0 18F00400#F17DFF0000FFF0FF
(1713129507.291810) can0 18FE6CEE#3A108010FFFF0000
(1713129507.327075) can0 18FFA917#53FFFFFFFFFFFFFF
(1713129507.327563) can0 18D0FF17#53FFFFFFFFFFFFFF
(1713129507.373194) can0 18F00400#F17DFF0000FFF0FF
(1713129507.373824) can0 18FE6CEE#3A108010FFFF0000
(1713129507.374310) can0 18F0010B#0000000000410B7F
(1713129507.374821) can0 18F00010#007D7DF4107D007D
(1713129507.375443) can0 18FEF100#C300000400001F00
(1713129507.376060) can0 18F00503#7DFFFF7D20202020
(1713129507.376560) can0 18FEFC21#FF0000FFFFFFFFFF
(1713129507.377185) can0 18FEF227#FFFFFFFFFFFF00FF
(1713129507.458070) can0 18F00400#F17DFF0000FFF0FF
(1713129507.458685) can0 18FE6CEE#3A108010FFFF0000
(1713129507.539953) can0 18F00400#F17DFF0000FFF0FF
(1713129507.540562) can0 18FE6CEE#3A108010FFFF0000
(1713129507.541061) can0 18F0010B#0000000000410B7F
(1713129507.541686) can0 18F00010#007D7DF4107D007D
(1713129507.542312) can0 18FEF100#C300000400001F00
(1713129507.542811) can0 18F00503#7DFFFF7D20202020
(1713129507.543436) can0 18FEFC21#FF0000FFFFFFFFFF
(1713129507.543936) can0 18FEF227#FFFFFFFFFFFF00FF
(1713129507.624697) can0 18F00400#F17DFF0000FFF0FF
(1713129507.625186) can0 18FE6CEE#3A108010FFFF0000
(1713129507.706566) can0 18F00400#F17DFF0000FFF0FF
(1713129507.707032) can0 18FE6CEE#3A108010FFFF0000
(1713129507.707628) can0 18F0010B#0000000000410B7F
(1713129507.708088) can0 18F00010#007D7DF4107D007D
(1713129507.708715) can0 18FEF100#C300000400001F00
(1713129507.709339) can0 18F00503#7DFFFF7D20202020
(1713129507.709841) can0 18FEFC21#FF0000FFFFFFFFFF
(1713129507.710439) can0 18FEF227#FFFFFFFFFFFF00FF
(1713129507.727442) can0 18ECFF17#202A0006FFCAFE00
(1713129507.776696) can0 18EBFF17#01C0FF13F824FE23
(1713129507.790818) can0 18F00400#F17DFF0000FFF0FF
(1713129507.791312) can0 18FE6CEE#3A108010FFFF0000
(1713129507.826941) can0 18FFA117#0300C3004C00C0FF
(1713129507.827563) can0 18EBFF17#02F764FE23F724FE
(1713129507.875218) can0 18F00400#F17DFF0000FFF0FF
(1713129507.875829) can0 18FE6CEE#3A108010FFFF0000
(1713129507.876435) can0 18F0010B#0000000000410B7F
(1713129507.876814) can0 18EBFF17#0353F524FE53F744
(1713129507.877478) can0 18F00010#007D7DF4107D007D
(1713129507.878075) can0 18FEF100#C300000400001F00
(1713129507.878580) can0 18F00503#7DFFFF7D20202020
(1713129507.879187) can0 18FEFC21#FF0000FFFFFFFFFF
(1713129507.879818) can0 18FEF227#FFFFFFFFFFFF00FF
(1713129507.927409) can0 18EBFF17#04FE53F784FE4401
(1713129507.956824) can0 18F00400#F17DFF0000FFF0FF
(1713129507.957313) can0 18FE6CEE#3A108010FFFF0000
(1713129507.976643) can0 18EBFF17#05248143F5C4FE43
(1713129508.026989) can0 18EBFF17#06F5E4FE43F86481
(1713129508.040949) can0 18F00400#F17DFF0000FFF0FF
(1713129508.041439) can0 18FE6CEE#3A108010FFFF0000
(1713129508.042065) can0 18F0010B#0000000000410B7F
(1713129508.042690) can0 18F00010#007D7DF4107D007D
(1713129508.043187) can0 18FEF100#C300000400001F00
(1713129508.043815) can0 18F00503#7DFFFF7D20202020
(1713129508.044315) can0 18FEFC21#FF0000FFFFFFFFFF
(1713129508.044939) can0 18FEF227#FFFFFFFFFFFF00FF
(1713129508.125235) can0 18F00400#F17DFF0000FFF0FF
(1713129508.125847) can0 18FE6CEE#3A108010FFFF0000
(1713129508.127349) can0 18DEEE17#FCFFFFFFFFFFFFFF
(1713129508.206595) can0 18F00400#F17DFF0000FFF0FF
(1713129508.207077) can0 18FE6CEE#3A108010FFFF0000
(1713129508.207697) can0 18F0010B#0000000000410B7F
(1713129508.208316) can0 18F00010#007D7DF4107D007D
(1713129508.208814) can0 18FEF100#C300000400001F00
(1713129508.209462) can0 18F00503#7DFFFF7D20202020
(1713129508.210077) can0 18FEFC21#FF0000FFFFFFFFFF
(1713129508.210629) can0 18FEF227#FFFFFFFFFFFF00FF
(1713129508.211190) can0 18FEEE00#28FF1F22FFFFFFFF
(1713129508.211698) can0 18FEF500#FFFFFFFF24FFFFFF
(1713129508.212326) can0 18FEAE30#FFFF0000FFFFFFFF
(1713129508.212940) can0 18FEC1EE#0000000000000000
(1713129508.290642) can0 18F00400#F17DFF0000FFF0FF
(1713129508.291128) can0 18FE6CEE#3A108010FFFF0000
(1713129508.374574) can0 18F00400#F17DFF0000FFF0FF
(1713129508.375189) can0 18FE6CEE#3A108010FFFF0000
(1713129508.375823) can0 18F0010B#0000000000410B7F
(1713129508.376314) can0 18F00010#007D7DF4107D007D
(1713129508.376939) can0 18FEF100#C300000400001F00
(1713129508.377445) can0 18F00503#7DFFFF7D20202020
(1713129508.378064) can0 18FEFC21#FF0000FFFFFFFFFF
(1713129508.378564) can0 18FEF227#FFFFFFFFFFFF00FF
(1713129508.458201) can0 18F00400#F17DFF0000FFF0FF
(1713129508.458815) can0 18FE6CEE#3A108010FFFF0000
(1713129508.542284) can0 18F00400#F17DFF0000FFF0FF
(1713129508.542891) can0 18FE6CEE#3A108010FFFF0000
(1713129508.543398) can0 18F0010B#0000000000410B7F
(1713129508.544017) can0 18F00010#007D7DF4107D007D
(1713129508.544518) can0 18FEF100#C300000400001F00
(1713129508.545104) can0 18F00503#7DFFFF7D20202020
(1713129508.545703) can0 18FEFC21#FF0000FFFFFFFFFF
(1713129508.546199) can0 18FEF227#FFFFFFFFFFFF00FF
(1713129508.623575) can0 18F00400#F17DFF0000FFF0FF
(1713129508.624010) can0 18FE6CEE#3A108010FFFF0000
(1713129508.707194) can0 18F00400#F17DFF0000FFF0FF
(1713129508.707627) can0 18FE6CEE#3A108010FFFF0000
(1713129508.708266) can0 18F0010B#0000000000410B7F
(1713129508.708849) can0 18F00010#007D7DF4107D007D
(1713129508.709380) can0 18FEF100#C300000400001F00
(1713129508.710006) can0 18F00503#7DFFFF7D20202020
(1713129508.710442) can0 18FEFC21#FF0000FFFFFFFFFF
(1713129508.711094) can0 18FEF227#FFFFFFFFFFFF00FF
(1713129508.727447) can0 18ECFF17#202A0006FFCAFE00
(1713129508.776605) can0 18EBFF17#01C0FF13F824FE23
(1713129508.790733) can0 18F00400#F17DFF0000FFF0FF
(1713129508.791329) can0 18FE6CEE#3A108010FFFF0000
(1713129508.826961) can0 18FFA117#0300C3004C00C0FF
(1713129508.827526) can0 18EBFF17#02F764FE23F724FE
(1713129508.874524) can0 18F00400#F17DFF0000FFF0FF
(1713129508.875130) can0 18FE6CEE#3A108010FFFF0000
(1713129508.875632) can0 18F0010B#0000000000410B7F
(1713129508.876256) can0 18F00010#007D7DF4107D007D
(1713129508.876880) can0 18EBFF17#0353F524FE53F744
(1713129508.877381) can0 18FEF100#C300000400001F00
(1713129508.878006) can0 18F00503#7DFFFF7D20202020
(1713129508.878506) can0 18FEFC21#FF0000FFFFFFFFFF
(1713129508.879242) can0 18FEF227#FFFFFFFFFFFF00FF
(1713129508.927443) can0 18EBFF17#04FE53F784FE4401
(1713129508.958523) can0 18F00400#F17DFF0000FFF0FF
(1713129508.959131) can0 18FE6CEE#3A108010FFFF0000
(1713129508.976593) can0 18EBFF17#05248143F5C4FE43
(1713129509.027103) can0 18EBFF17#06F5E4FE43F86481
(1713129509.052070) can0 18F00400#F17DFF0000FFF0FF
(1713129509.052528) can0 18FE6CEE#3A108010FFFF0000
(1713129509.053148) can0 18F0010B#0000000000410B7F
(1713129509.053586) can0 18F00010#007D7DF4107D007D
(1713129509.054274) can0 18FEF100#C300000400001F00
(1713129509.054891) can0 18F00503#7DFFFF7D20202020
(1713129509.055401) can0 18FEFC21#FF0000FFFFFFFFFF
(1713129509.056016) can0 18FEF227#FFFFFFFFFFFF00FF
(1713129509.127327) can0 18DEEE17#FCFFFFFFFFFFFFFF
(1713129509.141098) can0 18F00400#F17DFF0000FFF0FF
(1713129509.141489) can0 18FE6CEE#3A108010FFFF0000
(1713129509.221548) can0 18F00400#F17DFF0000FFF0FF
(1713129509.222039) can0 18FE6CEE#3A108010FFFF0000
(1713129509.222656) can0 18F0010B#0000000000410B7F
(1713129509.223129) can0 18F00010#007D7DF4107D007D
(1713129509.223767) can0 18FEF100#C300000400001F00
(1713129509.224393) can0 18F00503#7DFFFF7D20202020
(1713129509.224877) can0 18FEFC21#FF0000FFFFFFFFFF
(1713129509.225517) can0 18FEF227#FFFFFFFFFFFF00FF
(1713129509.307601) can0 18F00400#F17DFF0000FFF0FF
(1713129509.308027) can0 18FE6CEE#3A108010FFFF0000
(1713129509.390235) can0 18F00400#F17DFF0000FFF0FF
(1713129509.390757) can0 18FE6CEE#3A108010FFFF0000
(1713129509.391333) can0 18F0010B#0000000000410B7F
(1713129509.391848) can0 18F00010#007D7DF4107D007D
(1713129509.392460) can0 18FEF100#C300000400001F00
(1713129509.392957) can0 18F00503#7DFFFF7D20202020
(1713129509.393582) can0 18FEFC21#FF0000FFFFFFFFFF
(1713129509.394205) can0 18FEF227#FFFFFFFFFFFF00FF
(1713129509.473403) can0 18F00400#F17DFF0000FFF0FF
(1713129509.473883) can0 18FE6CEE#3A108010FFFF0000
(1713129509.712528) can0 18F00400#F17DFF0000FFF0FF
(1713129509.713133) can0 18FE6CEE#3A108010FFFF0000
(1713129509.713633) can0 18F0010B#0000000000410B7F
(1713129509.714259) can0 18F00010#007D7DF4107D007D
(1713129509.714882) can0 18FEF100#C300000400001F00
(1713129509.715382) can0 18F00503#7DFFFF7D20202020
(1713129509.716007) can0 18FEFC21#FF0000FFFFFFFFFF
(1713129509.716507) can0 18FEF227#FFFFFFFFFFFF00FF
(1713129509.727418) can0 18ECFF17#202A0006FFCAFE00
(1713129509.776574) can0 18EBFF17#01C0FF13F824FE23
(1713129509.797522) can0 18F00400#F17DFF0000FFF0FF
(1713129509.798134) can0 18FE6CEE#3A108010FFFF0000
(1713129509.826914) can0 18FFA117#0300C3004C00C0FF
(1713129509.827397) can0 18EBFF17#02F764FE23F724FE
(1713129509.876528) can0 18F00400#F17DFF0000FFF0FF
(1713129509.877009) can0 18EBFF17#0353F524FE53F744
(1713129509.877633) can0 18FE6CEE#3A108010FFFF0000
(1713129509.878134) can0 18F0010B#0000000000410B7F
(1713129509.878758) can0 18F00010#007D7DF4107D007D
(1713129509.879384) can0 18FEF100#C300000400001F00
(1713129509.879884) can0 18F00503#7DFFFF7D20202020
(1713129509.880509) can0 18FEFC21#FF0000FFFFFFFFFF
(1713129509.881149) can0 18FEF227#FFFFFFFFFFFF00FF
(1713129509.927241) can0 18EBFF17#04FE53F784FE4401
(1713129509.967800) can0 18F00400#F17DFF0000FFF0FF
(1713129509.968395) can0 18FE6CEE#3A108010FFFF0000
(1713129509.976450) can0 18EBFF17#05248143F5C4FE43
(1713129510.026958) can0 18EBFF17#06F5E4FE43F86481
(1713129510.054330) can0 18F00400#F17DFF0000FFF0FF
(1713129510.054789) can0 18FE6CEE#3A108010FFFF0000
(1713129510.055393) can0 18F0010B#0000000000410B7F
(1713129510.055883) can0 18F00010#007D7DF4107D007D
(1713129510.056521) can0 18FEF100#C300000400001F00
(1713129510.057144) can0 18F00503#7DFFFF7D20202020
(1713129510.057645) can0 18FEFC21#FF0000FFFFFFFFFF
(1713129510.058270) can0 18FEF227#FFFFFFFFFFFF00FF
(1713129510.058895) can0 18FEEE00#28FF1F22FFFFFFFF
(1713129510.059394) can0 18FEF500#FFFFFFFF24FFFFFF
(1713129510.060020) can0 18FEAE30#FFFF0000FFFFFFFF
(1713129510.060512) can0 18FEC1EE#0000000000000000
(1713129510.127090) can0 18DEEE17#FCFFFFFFFFFFFFFF
(1713129510.726825) can0 18ECFF17#202A0006FFCAFE00
(1713129510.776458) can0 18EBFF17#01C0FF13F824FE23
(1713129510.826835) can0 18FFA117#0300C3004C00C0FF
(1713129510.827326) can0 18EBFF17#02F764FE23F724FE
(1713129510.876404) can0 18EBFF17#0353F524FE53F744
(1713129510.926821) can0 18EBFF17#04FE53F784FE4401
(1713129510.976453) can0 18EBFF17#05248143F5C4FE43
(1713129511.026706) can0 18EBFF17#06F5E4FE43F86481
(1713129511.126843) can0 18DEEE17#FCFFFFFFFFFFFFFF
(1713129511.582819) can0 18F00400#F17DFF0000FFF0FF
(1713129511.583401) can0 18FE6CEE#3A108010FFFF0000
(1713129511.621457) can0 18F00400#F17DFF0000FFF0FF
(1713129511.621914) can0 18FE6CEE#3A108010FFFF0000
(1713129511.622532) can0 18F0010B#0000000000410B7F
(1713129511.623202) can0 18F00010#007D7DF4107D007D
(1713129511.623645) can0 18FEF100#C300000400001F00
(1713129511.624282) can0 18F00503#7DFFFF7D20202020
(1713129511.624909) can0 18FEFC21#FF0000FFFFFFFFFF
(1713129511.625432) can0 18FEF227#FFFFFFFFFFFF00FF
(1713129511.726846) can0 18ECFF17#202A0006FFCAFE00
(1713129511.742299) can0 18F00400#F17DFF0000FFF0FF
(1713129511.742901) can0 18FE6CEE#3A108010FFFF0000
(1713129511.776457) can0 18EBFF17#01C0FF13F824FE23
(1713129511.824579) can0 18F00400#F17DFF0000FFF0FF
(1713129511.825198) can0 18FE6CEE#3A108010FFFF0000
(1713129511.825659) can0 18F0010B#0000000000410B7F
(1713129511.826284) can0 18F00010#007D7DF4107D007D
(1713129511.826945) can0 18FEF100#C300000400001F00
(1713129511.827412) can0 18EBFF17#02F604FE23F764FE
(1713129511.827996) can0 18F00503#7DFFFF7D20202020
(1713129511.828477) can0 18FEFC21#FF0000FFFFFFFFFF
(1713129511.829096) can0 18FEF227#FFFFFFFFFFFF00FF
(1713129511.829596) can0 18FFA117#0300C3004C00C0FF
(1713129511.876281) can0 18EBFF17#0323F724FE53F524
(1713129511.906295) can0 18F00400#F17DFF0000FFF0FF
(1713129511.906910) can0 18FE6CEE#3A108010FFFF0000
(1713129511.927095) can0 18EBFF17#04FE53F744FE53F7
(1713129511.976291) can0 18EBFF17#0584FE4401248143
(1713129511.992455) can0 18F00400#F17DFF0000FFF0FF
(1713129511.992884) can0 18FE6CEE#3A108010FFFF0000
(1713129511.993486) can0 18F0010B#0000000000410B7F
(1713129511.994141) can0 18F00010#007D7DF4107D007D
(1713129511.994640) can0 18FEF100#C300000400001F00
(1713129511.995267) can0 18F00503#7DFFFF7D20202020
(1713129511.995892) can0 18FEFC21#FF0000FFFFFFFFFF
(1713129511.996391) can0 18FEF227#FFFFFFFFFFFF00FF
(1713129512.027087) can0 18EBFF17#06F5C4FE43F5E4FE
(1713129512.075536) can0 18F00400#F17DFF0000FFF0FF
(1713129512.076142) can0 18FE6CEE#3A108010FFFF0000
(1713129512.126840) can0 18DEEE17#FCFFFFFFFFFFFFFF
(1713129512.166972) can0 18F00400#F17DFF0000FFF0FF
(1713129512.167409) can0 18FE6CEE#3A108010FFFF0000
(1713129512.167919) can0 18F0010B#0000000000410B7F
(1713129512.168553) can0 18F00010#007D7DF4107D007D
(1713129512.169159) can0 18FEF100#C300000400001F00
(1713129512.169661) can0 18F00503#7DFFFF7D20202020
(1713129512.170276) can0 18FEFC21#FF0000FFFFFFFFFF
(1713129512.170903) can0 18FEF227#FFFFFFFFFFFF00FF
(1713129512.263463) can0 18F00400#F17DFF0000FFF0FF
(1713129512.264073) can0 18FE6CEE#3A108010FFFF0000
(1713129512.326708) can0 18FFA917#53FFFFFFFFFFFFFF
(1713129512.327324) can0 18D0FF17#53FFFFFFFFFFFFFF
(1713129512.358408) can0 18F00400#F17DFF0000FFF0FF
(1713129512.359016) can0 18FE6CEE#3A108010FFFF0000
(1713129512.359516) can0 18F0010B#0000000000410B7F
(1713129512.360141) can0 18F00010#007D7DF4107D007D
(1713129512.360605) can0 18FEF100#C300000400001F00
(1713129512.361290) can0 18F00503#7DFFFF7D20202020
(1713129512.361906) can0 18FEFC21#FF0000FFFFFFFFFF
(1713129512.362390) can0 18FEF227#FFFFFFFFFFFF00FF
(1713129512.447957) can0 18F00400#F17DFF0000FFF0FF
(1713129512.448394) can0 18FE6CEE#3A108010FFFF0000
(1713129512.555780) can0 18F00400#F17DFF0000FFF0FF
(1713129512.556268) can0 18FE6CEE#3A108010FFFF0000
(1713129512.556865) can0 18F0010B#0000000000410B7F
(1713129512.557394) can0 18F00010#007D7DF4107D007D
(1713129512.558018) can0 18FEF100#C300000400001F00
(1713129512.558643) can0 18F00503#7DFFFF7D20202020
(1713129512.559142) can0 18FEFC21#FF0000FFFFFFFFFF
(1713129512.559736) can0 18FEF227#FFFFFFFFFFFF00FF
(1713129512.651592) can0 18F00400#F17DFF0000FFF0FF
(1713129512.652207) can0 18FE6CEE#3A108010FFFF0000
(1713129512.726845) can0 18ECFF17#202A0006FFCAFE00
(1713129512.750038) can0 18F00400#F17DFF0000FFF0FF
(1713129512.750474) can0 18FE6CEE#3A108010FFFF0000
(1713129512.751145) can0 18F0010B#0000000000410B7F
(1713129512.751645) can0 18F00010#007D7DF4107D007D
(1713129512.752269) can0 18FEF100#C300000400001F00
(1713129512.752893) can0 18F00503#7DFFFF7D20202020
(1713129512.753393) can0 18FEFC21#FF0000FFFFFFFFFF
(1713129512.754019) can0 18FEF227#FFFFFFFFFFFF00FF
(1713129512.776340) can0 18EBFF17#01C0FF13F824FE23
(1713129512.826965) can0 18FFA117#0300C3004C00C0FF
(1713129512.827452) can0 18EBFF17#02F764FE23F724FE
(1713129512.836279) can0 18F00400#F17DFF0000FFF0FF
(1713129512.836769) can0 18FE6CEE#3A108010FFFF0000
(1713129512.876286) can0 18EBFF17#0353F524FE53F744
(1713129512.926676) can0 18EBFF17#04FE53F784FE4401
(1713129512.929325) can0 18F00400#F17DFF0000FFF0FF
(1713129512.929918) can0 18FE6CEE#3A108010FFFF0000
(1713129512.930400) can0 18F0010B#0000000000410B7F
(1713129512.931030) can0 18F00010#007D7DF4107D007D
(1713129512.931657) can0 18FEF100#C300000400001F00
(1713129512.932172) can0 18F00503#7DFFFF7D20202020
(1713129512.932780) can0 18FEFC21#FF0000FFFFFFFFFF
(1713129512.933278) can0 18FEF227#FFFFFFFFFFFF00FF
(1713129512.976335) can0 18EBFF17#05248143F5C4FE43
(1713129513.013333) can0 18F00400#F17DFF0000FFF0FF
(1713129513.013910) can0 18FE6CEE#3A108010FFFF0000
(1713129513.026955) can0 18EBFF17#06F5E4FE43F86481
(1713129513.115417) can0 18F00400#F17DFF0000FFF0FF
(1713129513.115895) can0 18FE6CEE#3A108010FFFF0000
(1713129513.116519) can0 18F0010B#0000000000410B7F
(1713129513.116977) can0 18F00010#007D7DF4107D007D
(1713129513.117646) can0 18FEF100#C300000400001F00
(1713129513.118270) can0 18F00503#7DFFFF7D20202020
(1713129513.118769) can0 18FEFC21#FF0000FFFFFFFFFF
(1713129513.119396) can0 18FEF227#FFFFFFFFFFFF00FF
(1713129513.126923) can0 18DEEE17#FCFFFFFFFFFFFFFF
(1713129513.202987) can0 18F00400#F17DFF0000FFF0FF
(1713129513.203585) can0 18FE6CEE#3A108010FFFF0000
(1713129513.287742) can0 18F00400#F17DFF0000FFF0FF
(1713129513.288150) can0 18FE6CEE#3A108010FFFF0000
(1713129513.288791) can0 18F0010B#0000000000410B7F
(1713129513.289333) can0 18F00010#007D7DF4107D007D
(1713129513.289959) can0 18FEF100#C300000400001F00
(1713129513.290584) can0 18F00503#7DFFFF7D20202020
(1713129513.291034) can0 18FEFC21#FF0000FFFFFFFFFF
(1713129513.291682) can0 18FEF227#FFFFFFFFFFFF00FF
(1713129513.292288) can0 18FEEE00#28FF1F22FFFFFFFF
(1713129513.292806) can0 18FEF500#FFFFFFFF24FFFFFF
(1713129513.293352) can0 18FEAE30#FFFF0000FFFFFFFF
(1713129513.293915) can0 18FEC1EE#0000000000000000
(1713129513.366619) can0 18F00400#F17DFF0000FFF0FF
(1713129513.367210) can0 18FE6CEE#3A108010FFFF0000
(1713129513.541389) can0 18F00400#F17DFF0000FFF0FF
(1713129513.541914) can0 18FE6CEE#7A104000FFFF0000
(1713129513.542534) can0 18F0010B#0000000000410B4F
(1713129513.543022) can0 18F00010#007D7DF4107D007D
(1713129513.543667) can0 18FEF100#C300000400001F00
(1713129513.544283) can0 18F00503#7DFFFF7D20202020
(1713129513.544801) can0 18FEFC21#FFE500FFFFFFFFFF
(1713129513.545408) can0 18FEF227#FFFFFFFFFFFF00FF
(1713129513.602715) can0 18F00400#F17DFF0000FFF0FF
(1713129513.603333) can0 18FE6CEE#7A104000FFFF3400
(1713129513.703969) can0 18F00400#F17DFF0000FFF0FF
(1713129513.704543) can0 18FE6CEE#7A104000FFFF3C00
(1713129513.705042) can0 18F0010B#0000000000410B4F
(1713129513.705663) can0 18F00010#007D7DF4107D007D
(1713129513.706282) can0 18FEF100#C33C000400001F00
(1713129513.706907) can0 18F00503#7DFFFF7D20202020
(1713129513.707405) can0 18FEFC21#FFE500FFFFFFFFFF
(1713129513.708032) can0 18FEF227#FFFFFFFFFFFF00FF
(1713129513.726928) can0 18ECFF17#202A0006FFCAFE00
(1713129513.776151) can0 18EBFF17#01C0FF13F824FE23
(1713129513.792416) can0 18F00400#F17DFF0000FFF0FF
(1713129513.793022) can0 18FE6CEE#7A104000FFFF2500
(1713129513.826563) can0 18FFA117#0300C3004C00C0FF
(1713129513.827157) can0 18EBFF17#02F764FE23F724FE
(1713129513.876169) can0 18EBFF17#0353F524FE53F744
(1713129513.878398) can0 18F00400#F17DFF0000FFF0FF
(1713129513.879022) can0 18FE6CEE#7A104000FFFF1500
(1713129513.879522) can0 18F0010B#0000000000410B4F
(1713129513.880147) can0 18F00010#007D7DF4107D007D
(1713129513.880777) can0 18FEF100#C315000400001F00
(1713129513.881289) can0 18F00503#7DFFFF7D20202020
(1713129513.881910) can0 18FEFC21#FFE500FFFFFFFFFF
(1713129513.882401) can0 18FEF227#FFFFFFFFFFFF00FF
(1713129513.926876) can0 18EBFF17#04FE53F784FE4401
(1713129513.975345) can0 18F00400#F17DFF0000FFF0FF
(1713129513.975955) can0 18FE6CEE#7A104000FFFF0400
(1713129513.976416) can0 18EBFF17#05248143F5C4FE43
(1713129514.026618) can0 18EBFF17#06F5E4FE43F86481
(1713129514.068678) can0 18F00400#F17DFF0000FFF0FF
(1713129514.069149) can0 18FE6CEE#7A104000FFFF0000
(1713129514.069773) can0 18F0010B#0000000000410B4F
(1713129514.070275) can0 18F00010#007D7DF4107D007D
(1713129514.070861) can0 18FEF100#C300000400001F00
(1713129514.071524) can0 18F00503#7DFFFF7D20202020
(1713129514.072028) can0 18FEFC21#FFE500FFFFFFFFFF
(1713129514.072652) can0 18FEF227#FFFFFFFFFFFF00FF
(1713129514.127109) can0 18DEEE17#FCFFFFFFFFFFFFFF
(1713129514.152919) can0 18F00400#F17DFF0000FFF0FF
(1713129514.153487) can0 18FE6CEE#7A104040FFFF0000
(1713129514.237665) can0 18F00400#F17DFF0000FFF0FF
(1713129514.238148) can0 18FE6CEE#7A104040FFFF0000
(1713129514.238774) can0 18F0010B#0000000000410B4F
(1713129514.239399) can0 18F00010#007D7DF4107D007D
(1713129514.239899) can0 18FEF100#C300000400001F00
(1713129514.240536) can0 18F00503#7DFFFF7D20202020
(1713129514.241044) can0 18FEFC21#FFE500FFFFFFFFFF
(1713129514.241660) can0 18FEF227#FFFFFFFFFFFF00FF
(1713129514.322345) can0 18F00400#F17DFF0000FFF0FF
(1713129514.322959) can0 18FE6CEE#7A104000FFFF0000
(1713129514.398790) can0 18F00400#F17DFF0000FFF0FF
(1713129514.399275) can0 18FE6CEE#7A104000FFFF0100
(1713129514.399899) can0 18F0010B#0000000000410B4F
(1713129514.400400) can0 18F00010#007D7DF4107D007D
(1713129514.401035) can0 18FEF100#C301000400001F00
(1713129514.401525) can0 18F00503#7DFFFF7D20202020
(1713129514.402161) can0 18FEFC21#FFE500FFFFFFFFFF
(1713129514.402784) can0 18FEF227#FFFFFFFFFFFF00FF
(1713129514.483614) can0 18F00400#F17DFF0000FFF0FF
(1713129514.484204) can0 18FE6CEE#7A104000FFFF0200
(1713129514.567556) can0 18F00400#F17DFF0000FFF0FF
(1713129514.568213) can0 18FE6CEE#7A104000FFFF0200
(1713129514.568687) can0 18F0010B#0000000000410B4F
(1713129514.569293) can0 18F00010#007D7DF4107D007D
(1713129514.569919) can0 18FEF100#C302000400001F00
(1713129514.570463) can0 18F00503#7DFFFF7D20202020
(1713129514.571090) can0 18FEFC21#FFE500FFFFFFFFFF
(1713129514.571528) can0 18FEF227#FFFFFFFFFFFF00FF
(1713129514.652593) can0 18F00400#F17DFF0000FFF0FF
(1713129514.653025) can0 18FE6CEE#7A104000FFFF0100
(1713129514.726604) can0 18ECFF17#202A0006FFCAFE00
(1713129514.736941) can0 18F00400#F17DFF0000FFF0FF
(1713129514.737491) can0 18FE6CEE#7A104000FFFF0100
(1713129514.738062) can0 18F0010B#0000000000410B4F
(1713129514.738671) can0 18F00010#007D7DF4107D007D
(1713129514.739216) can0 18FEF100#C301000400001F00
(1713129514.739794) can0 18F00503#7DFFFF7D20202020
(1713129514.740420) can0 18FEFC21#FFE500FFFFFFFFFF
(1713129514.740924) can0 18FEF227#FFFFFFFFFFFF00FF
(1713129514.776096) can0 18EBFF17#01C0FF13F824FE23
(1713129514.821683) can0 18F00400#F17DFF0000FFF0FF
(1713129514.822170) can0 18FE6CEE#7A104000FFFF0100
(1713129514.826851) can0 18FFA117#0300C3004C00C0FF
(1713129514.827418) can0 18EBFF17#02F764FE23F724FE
(1713129514.876171) can0 18EBFF17#0353F524FE53F744
(1713129514.905849) can0 18F00400#F17DFF0000FFF0FF
(1713129514.906309) can0 18FE6CEE#7A104000FFFF0100
(1713129514.906915) can0 18F0010B#0000000000410B4F
(1713129514.907405) can0 18F00010#007D7DF4107D007D
(1713129514.908039) can0 18FEF100#C301000400001F00
(1713129514.908652) can0 18F00503#7DFFFF7D20202020
(1713129514.909151) can0 18FEFC21#FFE500FFFFFFFFFF
(1713129514.909730) can0 18FEF227#FFFFFFFFFFFF00FF
(1713129514.926857) can0 18EBFF17#04FE53F784FE4401
(1713129514.976106) can0 18EBFF17#05248143F5C4FE43
(1713129514.982306) can0 18F00400#F17DFF0000FFF0FF
(1713129514.982803) can0 18FE6CEE#7A104000FFFF0100
(1713129515.026472) can0 18EBFF17#06F5E4FE43F86481
(1713129515.065843) can0 18F00400#F17DFF0000FFF0FF
(1713129515.066419) can0 18FE6CEE#7A104000FFFF0200
(1713129515.066898) can0 18F0010B#0000000000410B4F
(1713129515.067540) can0 18F00010#007D7DF4107D007D
(1713129515.068069) can0 18FEF100#C302000400001F00
(1713129515.068641) can0 18F00503#7DFFFF7D20202020
(1713129515.069240) can0 18FEFC21#FFE500FFFFFFFFFF
(1713129515.069903) can0 18FEF227#FFFFFFFFFFFF00FF
(1713129515.070363) can0 18FEEE00#46FFE925FFFFFFFF
(1713129515.070858) can0 18FEF500#FFFFFFFF24FFFFFF
(1713129515.071477) can0 18FEAE30#FFFF1010FFFFFFFF
(1713129515.072155) can0 18FEC1EE#85A9D90000000000
(1713129515.126718) can0 18DEEE17#FCFFFFFFFFFFFFFF
(1713129515.150822) can0 18F00400#F17DFF0000FFF0FF
(1713129515.151230) can0 18FE6CEE#7A104000FFFF0200
(1713129515.234503) can0 18F00400#F17DFF0000FFF0FF
(1713129515.235101) can0 18FE6CEE#7A104000FFFF0200
(1713129515.235600) can0 18F0010B#0000000000410B4F
(1713129515.236225) can0 18F00010#007D7DF4107D007D
(1713129515.236850) can0 18FEF100#C302000400001F00
(1713129515.237351) can0 18F00503#7DFFFF7D20202020
(1713129515.237977) can0 18FEFC21#FFE500FFFFFFFFFF
(1713129515.238475) can0 18FEF227#FFFFFFFFFFFF00FF
(1713129515.319628) can0 18F00400#F17DFF0000FFF0FF
(1713129515.320101) can0 18FE6CEE#7A104000FFFF0200
(1713129515.403815) can0 18F00400#F17DFF0000FFF0FF
(1713129515.404283) can0 18FE6CEE#7A104000FFFF0200
(1713129515.404915) can0 18F0010B#0000000000410B4F
(1713129515.405351) can0 18F00010#007D7DF4107D007D
(1713129515.406043) can0 18FEF100#C302000400001F00
(1713129515.406667) can0 18F00503#7DFFFF7D20202020
(1713129515.407151) can0 18FEFC21#FFE500FFFFFFFFFF
(1713129515.407793) can0 18FEF227#FFFFFFFFFFFF00FF
(1713129515.488594) can0 18F00400#F17DFF0000FFF0FF
(1713129515.489174) can0 18FE6CEE#7A104000FFFF0100
(1713129515.564425) can0 18F00400#F17DFF0000FFF0FF
(1713129515.564851) can0 18FE6CEE#7A104000FFFF0100
(1713129515.565529) can0 18F0010B#0000000000410B4F
(1713129515.566035) can0 18F00010#007D7DF4107D007D
(1713129515.566674) can0 18FEF100#C301000400001F00
(1713129515.567166) can0 18F00503#7DFFFF7D20202020
(1713129515.567774) can0 18FEFC21#FFE500FFFFFFFFFF
(1713129515.568413) can0 18FEF227#FFFFFFFFFFFF00FF
(1713129515.649062) can0 18F00400#F17DFF0000FFF0FF
(1713129515.649695) can0 18FE6CEE#7A104000FFFF0100
(1713129515.726441) can0 18ECFF17#202A0006FFCAFE00
(1713129515.733214) can0 18F00400#F17DFF0000FFF0FF
(1713129515.733797) can0 18FE6CEE#7A104000FFFF0200
(1713129515.734415) can0 18F0010B#0000000000410B4F
(1713129515.734934) can0 18F00010#007D7DF4107D007D
(1713129515.735540) can0 18FEF100#C302000400001F00
(1713129515.736045) can0 18F00503#7DFFFF7D20202020
(1713129515.736668) can0 18FEFC21#FFE500FFFFFFFFFF
(1713129515.737292) can0 18FEF227#FFFFFFFFFFFF00FF
(1713129515.776094) can0 18EBFF17#01C0FF13F824FE23
(1713129515.818473) can0 18F00400#F17DFF0000FFF0FF
(1713129515.819049) can0 18FE6CEE#7A104000FFFF0200
(1713129515.826722) can0 18FFA117#0300C3004C00C0FF
(1713129515.827174) can0 18EBFF17#02F764FE23F724FE
(1713129515.876044) can0 18EBFF17#0353F524FE53F744
(1713129515.902734) can0 18F00400#F17DFF0000FFF0FF
(1713129515.903193) can0 18FE6CEE#7A104000FFFF0200
(1713129515.903790) can0 18F0010B#0000000000410B4F
(1713129515.904310) can0 18F00010#007D7DF4107D007D
(1713129515.904915) can0 18FEF100#C302000400001F00
(1713129515.905438) can0 18F00503#7DFFFF7D20202020
(1713129515.906046) can0 18FEFC21#FFE500FFFFFFFFFF
(1713129515.906667) can0 18FEF227#FFFFFFFFFFFF00FF
(1713129515.926725) can0 18EBFF17#04FE53F784FE4401
(1713129515.975975) can0 18EBFF17#05248143F5C4FE43
(1713129515.987623) can0 18F00400#F17DFF0000FFF0FF
(1713129515.988120) can0 18FE6CEE#7A104000FFFF0200
(1713129516.026476) can0 18EBFF17#06F5E4FE43F86481
(1713129516.072132) can0 18F00400#F17DFF0000FFF0FF
(1713129516.072655) can0 18FE6CEE#7A104000FFFF0200
(1713129516.073280) can0 18F0010B#0000000000410B4F
(1713129516.073904) can0 18F00010#007D7DF4107D007D
(1713129516.074405) can0 18FEF100#C302000400001F00
(1713129516.074905) can0 18F00503#7DFFFF7D20202020
(1713129516.075530) can0 18FEFC21#FFE500FFFFFFFFFF
(1713129516.076115) can0 18FEF227#FFFFFFFFFFFF00FF
(1713129516.126697) can0 18DEEE17#FCFFFFFFFFFFFFFF
(1713129516.147730) can0 18F00400#F17DFF0000FFF0FF
(1713129516.148250) can0 18FE6CEE#7A104000FFFF0200
(1713129516.239923) can0 18F00400#F17DFF3011FFF0FF
(1713129516.240500) can0 18FE6CEE#7A104000FFFF0300
(1713129516.241043) can0 18F0010B#0000000000410B4F
(1713129516.241671) can0 18F00010#007D7DF4107D007D
(1713129516.242294) can0 18FEF100#C303000400001F00
(1713129516.242777) can0 18F00503#7DFFFF7D20202020
(1713129516.243419) can0 18FEFC21#FFE500FFFFFFFFFF
(1713129516.243922) can0 18FEF227#FFFFFFFFFFFF00FF
(1713129516.338097) can0 18F00400#F17DFF3011FFF0FF
(1713129516.338678) can0 18FE6CEE#7A104000FFFF0400
(1713129516.430749) can0 18F00400#F17DFF3011FFF0FF
(1713129516.431409) can0 18FE6CEE#7A104000FFFF0700
(1713129516.431856) can0 18F0010B#0000000000410B4F
(1713129516.432496) can0 18F00010#007D7DF4107D007D
(1713129516.433033) can0 18FEF100#C307000400001F00
(1713129516.433656) can0 18F00503#7DFFFF7D20202020
(1713129516.434282) can0 18FEFC21#FFE500FFFFFFFFFF
(1713129516.434907) can0 18FEF227#FFFFFFFFFFFF00FF
(1713129516.516049) can0 18F00400#F17DFF3011FFF0FF
(1713129516.516656) can0 18FE6CEE#7A104000FFFF0A00
(1713129516.591630) can0 18F00400#F17DFF3011FFF0FF
(1713129516.592282) can0 18FE6CEE#7A104000FFFF0D00
(1713129516.592906) can0 18F0010B#0000000000410B4F
(1713129516.593406) can0 18F00010#007D7DF4107D007D
(1713129516.594032) can0 18FEF100#C30D000400001F00
(1713129516.594532) can0 18F00503#7DFFFF7D20202020
(1713129516.595156) can0 18FEFC21#FFE500FFFFFFFFFF
(1713129516.595657) can0 18FEF227#FFFFFFFFFFFF00FF
(1713129516.676802) can0 18F00400#F17DFF3011FFF0FF
(1713129516.677409) can0 18FE6CEE#7A104000FFFF1000
(1713129516.726479) can0 18ECFF17#202A0006FFCAFE00
(1713129516.760937) can0 18F00400#F17DFF3011FFF0FF
(1713129516.761424) can0 18FE6CEE#7A104000FFFF1400
(1713129516.762046) can0 18F0010B#0000000000410B4F
(1713129516.762673) can0 18F00010#007D7DF4107D007D
(1713129516.763153) can0 18FEF100#C314000400001F00
(1713129516.763795) can0 18F00503#7DFFFF7D20202020
(1713129516.764296) can0 18FEFC21#FFE500FFFFFFFFFF
(1713129516.764869) can0 18FEF227#FFFFFFFFFFFF00FF
(1713129516.765429) can0 18FEEE00#46FFEF25FFFFFFFF
(1713129516.766064) can0 18FEF500#FFFFFFFF24FFFFFF
(1713129516.766671) can0 18FEAE30#FFFF1010FFFFFFFF
(1713129516.767160) can0 18FEC1EE#85A9D90000000000
(1713129516.775971) can0 18EBFF17#01C0FF13F824FE23
(1713129516.826631) can0 18FFA117#0300C3004C00C0FF
(1713129516.827048) can0 18EBFF17#02F764FE23F724FE
(1713129516.846185) can0 18F00400#F17DFF3011FFF0FF
(1713129516.846797) can0 18FE6CEE#7A104000FFFF1800
(1713129516.875924) can0 18EBFF17#0353F524FE53F744
(1713129516.926308) can0 18EBFF17#04FE53F784FE4401
(1713129516.930604) can0 18F00400#F17DFF3011FFF0FF
(1713129516.931177) can0 18FE6CEE#7A104000FFFF1D00
(1713129516.931690) can0 18F0010B#0000000000410B4F
(1713129516.932296) can0 18F00010#007D7DF4107D007D
(1713129516.932919) can0 18FEF100#C31D000400001F00
(1713129516.933421) can0 18F00503#7DFFFF7D20202020
(1713129516.933930) can0 18FEFC21#FFE502FFFFFFFFFF
(1713129516.934547) can0 18FEF227#FFFFFFFFFFFF00FF
(1713129516.975949) can0 18EBFF17#05248143F5C4FE43
(1713129517.015730) can0 18F00400#F17DFF3011FFF0FF
(1713129517.016302) can0 18FE6CEE#7A104000FFFF2200
(1713129517.026593) can0 18EBFF17#06F5E4FE43F86481
(1713129517.091975) can0 18F00400#F17DFF3011FFF0FF
(1713129517.092554) can0 18FE6CEE#7A104000FFFF2700
(1713129517.093031) can0 18F0010B#0000000000410B4F
(1713129517.093677) can0 18F00010#007D7DF4107D007D
(1713129517.094167) can0 18FEF100#C327000400001F00
(1713129517.094797) can0 18F00503#7DFFFF7D20202020
(1713129517.095377) can0 18FEFC21#FFE502FFFFFFFFFF
(1713129517.095929) can0 18FEF227#FFFFFFFFFFFF00FF
(1713129517.126602) can0 18DEEE17#FCFFFFFFFFFFFFFF
(1713129517.177599) can0 18F00400#F17DFF3011FFF0FF
(1713129517.178063) can0 18FE6CEE#7A104000FFFF2C00
(1713129517.261387) can0 18F00400#F17DFF3011FFF0FF
(1713129517.261881) can0 18FE6CEE#7A104000FFFF3200
(1713129517.262506) can0 18F0010B#0000000000410B4F
(1713129517.263131) can0 18F00010#007D7DF4107D007D
(1713129517.263631) can0 18FEF100#C332000400001F00
(1713129517.264256) can0 18F00503#7DFFFF7D20202020
(1713129517.264881) can0 18FEFC21#FFE502FFFFFFFFFF
(1713129517.265380) can0 18FEF227#FFFFFFFFFFFF00FF
(1713129517.326616) can0 18FFA917#53FFFFFFFFFFFFFF
(1713129517.327176) can0 18D0FF17#53FFFFFFFFFFFFFF
(1713129517.346882) can0 18F00400#F17DFF3011FFF0FF
(1713129517.347305) can0 18FE6CEE#7A104000FFFF3700
(1713129517.431009) can0 18F00400#F17DFF3011FFF0FF
(1713129517.431634) can0 18FE6CEE#7A104000FFFF3D00
(1713129517.432114) can0 18F0010B#0000000000410B4F
(1713129517.432733) can0 18F00010#007D7DF4107D007D
(1713129517.433231) can0 18FEF100#C33D000400001F00
(1713129517.433859) can0 18F00503#7DFFFF7D20202020
(1713129517.434482) can0 18FEFC21#FFE502FFFFFFFFFF
(1713129517.434982) can0 18FEF227#FFFFFFFFFFFF00FF
(1713129517.516928) can0 18F00400#F17DFF3011FFF0FF
(1713129517.517367) can0 18FE6CEE#7A104000FFFF4300
(1713129517.593053) can0 18F00400#F17DFF3011FFF0FF
(1713129517.593660) can0 18FE6CEE#7A104000FFFF4A00
(1713129517.594160) can0 18F0010B#0000000000410B4F
(1713129517.594785) can0 18F00010#007D7DF4107D007D
(1713129517.595410) can0 18FEF100#C34A000400001F00
(1713129517.595910) can0 18F00503#7DFFFF7D20202020
(1713129517.596536) can0 18FEFC21#FFE504FFFFFFFFFF
(1713129517.597036) can0 18FEF227#FFFFFFFFFFFF00FF
(1713129517.679052) can0 18F00400#F17DFF3011FFF0FF
(1713129517.679660) can0 18FE6CEE#7A104000FFFF5000
(1713129517.726320) can0 18ECFF17#202A0006FFCAFE00
(1713129517.764477) can0 18F00400#F17DFF3011FFF0FF
(1713129517.764929) can0 18FE6CEE#7A104000FFFF5600
(1713129517.765473) can0 18F0010B#0000000000410B4F
(1713129517.766073) can0 18F00010#007D7DF4107D007D
(1713129517.766675) can0 18FEF100#C356000400001F00
(1713129517.767158) can0 18F00503#7DFFFF7D20202020
(1713129517.767797) can0 18FEFC21#FFE504FFFFFFFFFF
(1713129517.768307) can0 18FEF227#FFFFFFFFFFFF00FF
(1713129517.775979) can0 18EBFF17#01C0FF13F824FE23
(1713129517.826604) can0 18FFA117#0300C3004C00C0FF
(1713129517.827038) can0 18EBFF17#02F764FE23F724FE
(1713129517.850481) can0 18F00400#F17DFF3011FFF0FF
(1713129517.850915) can0 18FE6CEE#7A104000FFFF5D00
(1713129517.875931) can0 18EBFF17#0353F524FE53F744
(1713129517.926232) can0 18EBFF17#04FE53F784FE4401
(1713129517.927177) can0 18F00400#F17DFF3011FFF0FF
(1713129517.927667) can0 18FE6CEE#7A104000FFFF6300
(1713129517.928301) can0 18F0010B#400C000000410B4F
(1713129517.928924) can0 18F00010#007D7DF4107D007D
(1713129517.929384) can0 18FEF100#C363001400001F00
(1713129517.930049) can0 18F00503#7DFFFF7D20202020
(1713129517.930570) can0 18FEFC21#FFE504FFFFFFFFFF
(1713129517.931173) can0 18FEF227#FFFFFFFFFFFF00FF
(1713129517.975856) can0 18EBFF17#05248143F5C4FE43
(1713129518.014978) can0 18F00400#F17DFF3011FFF0FF
(1713129518.015431) can0 18FE6CEE#7A104000FFFF6300
(1713129518.026589) can0 18EBFF17#06F5E4FE43F86481
(1713129518.100010) can0 18F00400#F17DFF3011FFF0FF
(1713129518.100437) can0 18FE6CEE#7A104000FFFF5400
(1713129518.100941) can0 18F0010B#402F000000410B4F
(1713129518.101530) can0 18F00010#007D7DF4107D007D
(1713129518.102185) can0 18FEF100#C354001400001F00
(1713129518.102668) can0 18F00503#7DFFFF7D20202020
(1713129518.103304) can0 18FEFC21#FFE504FFFFFFFFFF
(1713129518.103932) can0 18FEF227#FFFFFFFFFFFF00FF
(1713129518.126465) can0 18DEEE17#FCFFFFFFFFFFFFFF
(1713129518.188652) can0 18F00400#F17DFF3011FFF0FF
(1713129518.189287) can0 18FE6CEE#7A104000FFFF3400
(1713129518.278303) can0 18F00400#F17DFF3011FFF0FF
(1713129518.278912) can0 18FE6CEE#7A104000FFFF0700
(1713129518.279413) can0 18F0010B#402F000000410B4F
(1713129518.280038) can0 18F00010#007D7DF4107D007D
(1713129518.280543) can0 18FEF100#C307001400001F00
(1713129518.281178) can0 18F00503#7DFFFF7D20202020
(1713129518.281684) can0 18FEFC21#FFE506FFFFFFFFFF
(1713129518.282304) can0 18FEF227#FFFFFFFFFFFF00FF
(1713129518.373079) can0 18F00400#F17DFF3011FFF0FF
(1713129518.373550) can0 18FE6CEE#7A104000FFFF0C00
(1713129518.458631) can0 18F00400#F17DFF3011FFF0FF
(1713129518.459182) can0 18FE6CEE#7A104000FFFF0800
(1713129518.459683) can0 18F0010B#402D000000410B4F
(1713129518.460303) can0 18F00010#007D7DF4107D007D
(1713129518.460932) can0 18FEF100#C308001400001F00
(1713129518.461459) can0 18F00503#7DFFFF7D20202020
(1713129518.462074) can0 18FEFC21#FFE506FFFFFFFFFF
(1713129518.462547) can0 18FEF227#FFFFFFFFFFFF00FF
(1713129518.463175) can0 18FEEE00#46FF4926FFFFFFFF
(1713129518.463686) can0 18FEF500#FFFFFFFF24FFFFFF
(1713129518.464260) can0 18FEAE30#FFFF1010FFFFFFFF
(1713129518.464884) can0 18FEC1EE#85A9D90000000000
(1713129518.545222) can0 18F00400#F17DFF3011FFF0FF
(1713129518.545680) can0 18FE6CEE#7A104000FFFF0500
(1713129518.630806) can0 18F00400#F17DFF3011FFF0FF
(1713129518.631246) can0 18FE6CEE#7A104000FFFF0100
(1713129518.631878) can0 18F0010B#402A000000410B4F
(1713129518.632379) can0 18F00010#007D7DF4107D007D
(1713129518.632990) can0 18FEF100#C301001400001F00
(1713129518.633615) can0 18F00503#7DFFFF7D20202020
(1713129518.634112) can0 18FEFC21#FFE506FFFFFFFFFF
(1713129518.634737) can0 18FEF227#FFFFFFFFFFFF00FF
(1713129518.708529) can0 18F00400#F17DFF3011FFF0FF
(1713129518.709040) can0 18FE6CEE#7A104000FFFF0000
(1713129518.726613) can0 18ECFF17#202A0006FFCAFE00
(1713129518.775858) can0 18EBFF17#01C0FF13F824FE23
(1713129518.793889) can0 18F00400#F17DFF3011FFF0FF
(1713129518.794491) can0 18FE6CEE#7A104000FFFF0100
(1713129518.794990) can0 18F0010B#4027000000410B4F
(1713129518.795614) can0 18F00010#007D7DF4107D007D
(1713129518.796114) can0 18FEF100#C301001400001F00
(1713129518.796737) can0 18F00503#7DFFFF7D20202020
(1713129518.797241) can0 18FEFC21#FFE506FFFFFFFFFF
(1713129518.797865) can0 18FEF227#FFFFFFFFFFFF00FF
(1713129518.826358) can0 18FFA117#0300C3004C00C0FF
(1713129518.826935) can0 18EBFF17#02F764FE23F724FE
(1713129518.875763) can0 18EBFF17#0353F524FE53F744
(1713129518.880621) can0 18F00400#F17DFF3011FFF0FF
(1713129518.881314) can0 18FE6CEE#7A104000FFFF0000
(1713129518.926207) can0 18EBFF17#04FE53F784FE4401
(1713129518.957514) can0 18F00400#F17DFF3011FFF0FF
(1713129518.957991) can0 18FE6CEE#7A104040FFFF0000
(1713129518.958614) can0 18F0010B#4028000000410B4F
(1713129518.959114) can0 18F00010#007D7DF4107D007D
(1713129518.959738) can0 18FEF100#C300001400001F00
(1713129518.960238) can0 18F00503#7DFFFF7D20202020
(1713129518.960870) can0 18FEFC21#FFE508FFFFFFFFFF
(1713129518.961442) can0 18FEF227#FFFFFFFFFFFF00FF
(1713129518.975730) can0 18EBFF17#05248143F5C4FE43
(1713129519.026631) can0 18EBFF17#06F5E4FE43F86481
(1713129519.043571) can0 18F00400#F17DFF3011FFF0FF
(1713129519.044194) can0 18FE6CEE#7A104040FFFF0000
(1713129519.126073) can0 18DEEE17#FCFFFFFFFFFFFFFF
(1713129519.129536) can0 18F00400#F17DFF3011FFF0FF
(1713129519.130184) can0 18FE6CEE#7A104000FFFF0000
(1713129519.130663) can0 18F0010B#4029000000410B4F
(1713129519.131302) can0 18F00010#007D7DF4107D007D
(1713129519.131927) can0 18FEF100#C300001400001F00
(1713129519.132436) can0 18F00503#7DFFFF7D20202020
(1713129519.133055) can0 18FEFC21#FFE508FFFFFFFFFF
(1713129519.133507) can0 18FEF227#FFFFFFFFFFFF00FF
(1713129519.208314) can0 18F00400#F17DFF3011FFF0FF
(1713129519.208820) can0 18FE6CEE#7A104040FFFF0000
(1713129519.293120) can0 18F00400#F17DFF3011FFF0FF
(1713129519.293635) can0 18FE6CEE#7A104000FFFF0000
(1713129519.294191) can0 18F0010B#4028000000410B4F
(1713129519.294808) can0 18F00010#007D7DF4107D007D
(1713129519.295428) can0 18FEF100#C300001400001F00
(1713129519.295913) can0 18F00503#7DFFFF7D20202020
(1713129519.296553) can0 18FEFC21#FFE508FFFFFFFFFF
(1713129519.297064) can0 18FEF227#FFFFFFFFFFFF00FF
(1713129519.379991) can0 18F00400#F17DFF3011FFF0FF
(1713129519.380459) can0 18FE6CEE#7A104000FFFF0000
(1713129519.456487) can0 18F00400#F17DFF3011FFF0FF
(1713129519.457058) can0 18FE6CEE#7A104000FFFF0000
(1713129519.457576) can0 18F0010B#4028000000410B4F
(1713129519.458180) can0 18F00010#007D7DF4107D007D
(1713129519.458675) can0 18FEF100#C300001400001F00
(1713129519.459302) can0 18F00503#7DFFFF7D20202020
(1713129519.459930) can0 18FEFC21#FFE508FFFFFFFFFF
(1713129519.460452) can0 18FEF227#FFFFFFFFFFFF00FF
(1713129519.542582) can0 18F00400#F17DFF3011FFF0FF
(1713129519.543185) can0 18FE6CEE#7A104000FFFF0000
(1713129519.628531) can0 18F00400#F17DFF3011FFF0FF
(1713129519.629169) can0 18FE6CEE#7A104000FFFF0000
(1713129519.629669) can0 18F0010B#4027000000410B4F
(1713129519.630261) can0 18F00010#007D7DF4107D007D
(1713129519.630884) can0 18FEF100#C300001400001F00
(1713129519.631418) can0 18F00503#7DFFFF7D20202020
(1713129519.632047) can0 18FEFC21#FFE50AFFFFFFFFFF
(1713129519.632497) can0 18FEF227#FFFFFFFFFFFF00FF
(1713129519.715019) can0 18F00400#F17DFF3011FFF0FF
(1713129519.715616) can0 18FE6CEE#7A104000FFFF0000
(1713129519.726447) can0 18ECFF17#202A0006FFCAFE00
(1713129519.775689) can0 18EBFF17#01C0FF13F824FE23
(1713129519.792646) can0 18F00400#F17DFF3011FFF0FF
(1713129519.793118) can0 18FE6CEE#7A104000FFFF0000
(1713129519.793744) can0 18F0010B#4027000000410B4F
(1713129519.794364) can0 18F00010#007D7DF4107D007D
(1713129519.794867) can0 18FEF100#C300001400001F00
(1713129519.795489) can0 18F00503#7DFFFF7D20202020
(1713129519.795991) can0 18FEFC21#FFE50AFFFFFFFFFF
(1713129519.796615) can0 18FEF227#FFFFFFFFFFFF00FF
(1713129519.826332) can0 18FFA117#0300C3004C00C0FF
(1713129519.826930) can0 18EBFF17#02F764FE23F724FE
(1713129519.875644) can0 18EBFF17#0353F524FE53F744
(1713129519.878120) can0 18F00400#F17DFF3011FFF0FF
(1713129519.878615) can0 18FE6CEE#7A104000FFFF0000
(1713129519.926112) can0 18EBFF17#04FE53F784FE4401
(1713129519.964078) can0 18F00400#F17DFF3011FFF0FF
(1713129519.964682) can0 18FE6CEE#7A104000FFFF0000
(1713129519.965162) can0 18F0010B#4025000000410B4F
(1713129519.965806) can0 18F00010#007D7DF4107D007D
(1713129519.966429) can0 18FEF100#C300001400001F00
(1713129519.966946) can0 18F00503#7DFFFF7D20202020
(1713129519.967558) can0 18FEFC21#FFE50AFFFFFFFFFF
(1713129519.968060) can0 18FEF227#FFFFFFFFFFFF00FF
(1713129519.975730) can0 18EBFF17#05248143F5C4FE43
(1713129520.026492) can0 18EBFF17#06F5E4FE43F86481
(1713129520.041535) can0 18F00400#F17DFF3011FFF0FF
(1713129520.042182) can0 18FE6CEE#7A104000FFFF0000
(1713129520.126082) can0 18DEEE17#FCFFFFFFFFFFFFFF
(1713129520.127121) can0 18F00400#F17DFF3011FFF0FF
(1713129520.127808) can0 18FE6CEE#7A104000FFFF0000
(1713129520.128315) can0 18F0010B#4025000000410B4F
(1713129520.128938) can0 18F00010#007D7DF4107D007D
(1713129520.129525) can0 18FEF100#C300001400001F00
(1713129520.130043) can0 18F00503#7DFFFF7D20202020
(1713129520.130683) can0 18FEFC21#FFE50AFFFFFFFFFF
(1713129520.131310) can0 18FEF227#FFFFFFFFFFFF00FF
(1713129520.131804) can0 18FEEE00#46FF5A26FFFFFFFF
(1713129520.132428) can0 18FEF500#FFFFFFFF24FFFFFF
(1713129520.132953) can0 18FEAE30#FFFF1010FFFFFFFF
(1713129520.133526) can0 18FEC1EE#85A9D90000000000
(1713129520.213358) can0 18F00400#F17DFF3011FFF0FF
(1713129520.213935) can0 18FE6CEE#7A104000FFFF0000
(1713129520.291002) can0 18F00400#F17DFF3011FFF0FF
(1713129520.291443) can0 18FE6CEE#7A104000FFFF0000
(1713129520.292056) can0 18F0010B#4023000000410B4F
(1713129520.292682) can0 18F00010#007D7DF4107D007D
(1713129520.293202) can0 18FEF100#C300001400001F00
(1713129520.293812) can0 18F00503#7DFFFF7D20202020
(1713129520.294288) can0 18FEFC21#FFE50AFFFFFFFFFF
(1713129520.294933) can0 18FEF227#FFFFFFFFFFFF00FF
(1713129520.377005) can0 18F00400#F17DFF3011FFF0FF
(1713129520.377641) can0 18FE6CEE#7A104000FFFF0000
(1713129520.463331) can0 18F00400#F17DFF3011FFF0FF
(1713129520.463934) can0 18FE6CEE#7A104000FFFF0000
(1713129520.464430) can0 18F0010B#4022000000410B4F
(1713129520.465059) can0 18F00010#007D7DF4107D007D
(1713129520.465546) can0 18FEF100#C300001400001F00
(1713129520.466184) can0 18F00503#7DFFFF7D20202020
(1713129520.466674) can0 18FEFC21#FFE50AFFFFFFFFFF
(1713129520.467307) can0 18FEF227#FFFFFFFFFFFF00FF
(1713129520.540367) can0 18F00400#F17DFF3011FFF0FF
(1713129520.540888) can0 18FE6CEE#7A104000FFFF0000
(1713129520.626646) can0 18F00400#F17DFF3011FFF0FF
(1713129520.627191) can0 18FE6CEE#7A104000FFFF0100
(1713129520.627677) can0 18F0010B#4022000000410B4F
(1713129520.628305) can0 18F00010#007D7DF4107D007D
(1713129520.628884) can0 18FEF100#C301001400001F00
(1713129520.629439) can0 18F00503#7DFFFF7D20202020
(1713129520.630010) can0 18FEFC21#FFE50AFFFFFFFFFF
(1713129520.630562) can0 18FEF227#FFFFFFFFFFFF00FF
(1713129520.712390) can0 18F00400#F17DFF3011FFF0FF
(1713129520.712862) can0 18FE6CEE#7A104000FFFF0100
(1713129520.726358) can0 18ECFF17#202A0006FFCAFE00
(1713129520.775616) can0 18EBFF17#01C0FF13F824FE23
(1713129520.790660) can0 18F00400#F17DFF3011FFF0FF
(1713129520.791134) can0 18FE6CEE#7A104000FFFF0100
(1713129520.791759) can0 18F0010B#4020000000410B4F
(1713129520.792300) can0 18F00010#007D7DF4107D007D
(1713129520.792916) can0 18FEF100#C301001400001F00
(1713129520.793506) can0 18F00503#7DFFFF7D20202020
(1713129520.794047) can0 18FEFC21#FFE50AFFFFFFFFFF
(1713129520.794672) can0 18FEF227#FFFFFFFFFFFF00FF
(1713129520.826244) can0 18FFA117#0300C3004C00C0FF
(1713129520.826818) can0 18EBFF17#02F764FE23F724FE
(1713129520.875568) can0 18EBFF17#0353F524FE53F744
(1713129520.876673) can0 18F00400#F17DFF3011FFF0FF
(1713129520.877134) can0 18FE6CEE#7A104000FFFF0100
(1713129520.925922) can0 18EBFF17#04FE53F784FE4401
(1713129520.962661) can0 18F00400#F17DFF3011FFF0FF
(1713129520.963008) can0 18FE6CEE#7A104000FFFF0000
(1713129520.963685) can0 18F0010B#4014000000410B4F
(1713129520.964178) can0 18F00010#007D7DF4107D007D
(1713129520.964810) can0 18FEF100#C300001400001F00
(1713129520.965319) can0 18F00503#7DFFFF7D20202020
(1713129520.965952) can0 18FEFC21#FFE50AFFFFFFFFFF
(1713129520.966560) can0 18FEF227#FFFFFFFFFFFF00FF
(1713129520.975607) can0 18EBFF17#05248143F5C4FE43
(1713129521.026371) can0 18EBFF17#06F5E4FE43F86481
(1713129521.048248) can0 18F00400#F17DFF3011FFF0FF
(1713129521.048681) can0 18FE6CEE#7A104000FFFF0100
(1713129521.125982) can0 18F00400#F17DFF3011FFF0FF
(1713129521.126449) can0 18DEEE17#FCFFFFFFFFFFFFFF
(1713129521.127062) can0 18FE6CEE#7A104000FFFF0200
(1713129521.127686) can0 18F0010B#0000000000410B4F
(1713129521.128204) can0 18F00010#007D7DF4107D007D
(1713129521.128810) can0 18FEF100#C302000400001F00
(1713129521.129304) can0 18F00503#7DFFFF7D20202020
(1713129521.129933) can0 18FEFC21#FFE50AFFFFFFFFFF
(1713129521.130560) can0 18FEF227#FFFFFFFFFFFF00FF
(1713129521.211488) can0 18F00400#F17DFF3011FFF0FF
(1713129521.212067) can0 18FE6CEE#7A104000FFFF0400
(1713129521.297026) can0 18F00400#F17DFF3011FFF0FF
(1713129521.297523) can0 18FE6CEE#7A104000FFFF0600
(1713129521.298186) can0 18F0010B#0000000000410B4F
(1713129521.298683) can0 18F00010#007D7DF4107D007D
(1713129521.299363) can0 18FEF100#C306000400001F00
(1713129521.299941) can0 18F00503#7DFFFF7D20202020
(1713129521.300435) can0 18FEFC21#FFE50AFFFFFFFFFF
(1713129521.301059) can0 18FEF227#FFFFFFFFFFFF00FF
(1713129521.374199) can0 18F00400#F17DFF3011FFF0FF
(1713129521.374811) can0 18FE6CEE#7A104000FFFF0900
(1713129521.460398) can0 18F00400#F17DFF3011FFF0FF
(1713129521.460942) can0 18FE6CEE#7A104000FFFF0D00
(1713129521.461434) can0 18F0010B#0000000000410B4F
(1713129521.462062) can0 18F00010#007D7DF4107D007D
(1713129521.462560) can0 18FEF100#C30D000400001F00
(1713129521.463184) can0 18F00503#7DFFFF7D20202020
(1713129521.463680) can0 18FEFC21#FFE50AFFFFFFFFFF
(1713129521.464311) can0 18FEF227#FFFFFFFFFFFF00FF
(1713129521.545407) can0 18F00400#F17DFF3011FFF0FF
(1713129521.546063) can0 18FE6CEE#7A104000FFFF1100
(1713129521.631406) can0 18F00400#F186FF6B11FFF0FF
(1713129521.632013) can0 18FE6CEE#7A104000FFFF1500
(1713129521.632549) can0 18F0010B#0000000000410B4F
(1713129521.633175) can0 18F00010#007D7DF4107D007D
(1713129521.633801) can0 18FEF100#C315000400001F00
(1713129521.634301) can0 18F00503#7EFFFF7E20442044
(1713129521.634925) can0 18FEFC21#FFE50AFFFFFFFFFF
(1713129521.635424) can0 18FEF227#FFFFFFFFFFFF17FF
(1713129521.707834) can0 18F00400#F196FF9011FFF0FF
(1713129521.708312) can0 18FE6CEE#7A104000FFFF1A00
(1713129521.726345) can0 18ECFF17#202A0006FFCAFE00
(1713129521.775621) can0 18EBFF17#01C0FF13F824FE23
(1713129521.794066) can0 18F00400#F1ACFFF210FFF0FF
(1713129521.794675) can0 18FE6CEE#7A104000FFFF2100
(1713129521.795300) can0 18F0010B#0000000000410B4F
(1713129521.795800) can0 18F00010#007D7DF4107D007D
(1713129521.796424) can0 18FEF100#C321000400001F00
(1713129521.796925) can0 18F00503#7EFFFF7E20442044
(1713129521.797509) can0 18FEFC21#FFE50AFFFFFFFFFF
(1713129521.798051) can0 18FEF227#FFFFFFFFFFFF76FF
(1713129521.798675) can0 18FEEE00#46FF6F26FFFFFFFF
(1713129521.799300) can0 18FEF500#FFFFFFFF24FFFFFF
(1713129521.799800) can0 18FEAE30#FFFF1010FFFFFFFF
(1713129521.800425) can0 18FEC1EE#85A9D90000000000
(1713129521.826117) can0 18FFA117#0300C3004C00C0FF
(1713129521.826555) can0 18EBFF17#02F764FE23F724FE
(1713129521.875569) can0 18EBFF17#0353F524FE53F744
(1713129521.879177) can0 18F00400#F1B3FFFF0FFFF0FF
(1713129521.879802) can0 18FE6CEE#7A104000FFFF2B00
(1713129521.925998) can0 18EBFF17#04FE53F784FE4401
(1713129521.956944) can0 18F00400#F1B9FF1F0FFFF0FF
(1713129521.957510) can0 18FE6CEE#7A104000FFFF3B00
(1713129521.958051) can0 18F0010B#0000000000410B4F
(1713129521.958675) can0 18F00010#007D7DF4107D007D
(1713129521.959176) can0 18FEF100#C33B000400001F00
(1713129521.959801) can0 18F00503#7EFFFF7E20442044
(1713129521.960425) can0 18FEFC21#FFE50AFFFFFFFFFF
(1713129521.960950) can0 18FEF227#FFFFFFFFFFFF96FF
(1713129521.975636) can0 18EBFF17#05248143F5C4FE43
(1713129522.026372) can0 18EBFF17#06F5E4FE43F86481
(1713129522.041827) can0 18F00400#F1B9FF7A0EFFF0FF
(1713129522.042305) can0 18FE6CEE#7A104000FFFF5000
(1713129522.125791) can0 18DEEE17#FCFFFFFFFFFFFFFF
(1713129522.128487) can0 18F00400#F1BAFF180EFFF0FF
(1713129522.129069) can0 18FE6CEE#7A104000FFFF6B00
(1713129522.129559) can0 18F0010B#0000000000410B4F
(1713129522.130195) can0 18F00010#007D7DF4107D007D
(1713129522.130856) can0 18FEF100#C36B000400001F00
(1713129522.131325) can0 18F00503#7EFFFF7E20442044
(1713129522.131940) can0 18FEFC21#FFE50AFFFFFFFFFF
(1713129522.132514) can0 18FEF227#FFFFFFFFFFFF9AFF
(1713129522.212994) can0 18F00400#F1BBFFED0DFFF0FF
(1713129522.213447) can0 18FE6CEE#7A104000FFFF8D00
(1713129522.289993) can0 18F00400#F1BAFFEE0DFFF0FF
(1713129522.290435) can0 18FE6CEE#7A104000FFFFB500
(1713129522.291064) can0 18F0010B#0000000000410B4F
(1713129522.291574) can0 18F00010#007D7DF4107D007D
(1713129522.292196) can0 18FEF100#C3B5000400001F00
(1713129522.292814) can0 18F00503#7EFFFF7E20442044
(1713129522.293300) can0 18FEFC21#FFE50AFFFFFFFFFF
(1713129522.293938) can0 18FEF227#FFFFFFFFFFFF99FF
(1713129522.326239) can0 18FFA917#53FFFFFFFFFFFFFF
(1713129522.326799) can0 18D0FF17#53FFFFFFFFFFFFFF
(1713129522.375137) can0 18F00400#F1BBFF1F0EFFF0FF
(1713129522.375698) can0 18FE6CEE#7A104000FFFFE200
(1713129522.461536) can0 18F00400#F1BBFF7F0EFFF0FF
(1713129522.462192) can0 18FE6CEE#7A104000FFFF1401
(1713129522.462721) can0 18F0010B#0000000000410B4F
(1713129522.463329) can0 18F00010#007D7DF4107D007D
(1713129522.463947) can0 18FEF100#C314010400001F00
(1713129522.464459) can0 18F00503#7EFFFF7E20442044
(1713129522.465074) can0 18FEFC21#FFE50AFFFFFFFFFF
(1713129522.465561) can0 18FEF227#FFFFFFFFFFFF9BFF
(1713129522.553022) can0 18F00400#F1BBFF210FFFF0FF
(1713129522.553498) can0 18FE6CEE#7A104000FFFF4B01
(1713129522.637957) can0 18F00400#F1BBFFF50FFFF0FF
(1713129522.638565) can0 18FE6CEE#7A104000FFFF8501
(1713129522.639059) can0 18F0010B#0000000000410B4F
(1713129522.639691) can0 18F00010#007D7DF4107D007D
(1713129522.640316) can0 18FEF100#C385010400001F00
(1713129522.640835) can0 18F00503#7EFFFF7E20442044
(1713129522.641443) can0 18FEFC21#FFE50AFFFFFFFFFF
(1713129522.641926) can0 18FEF227#FFFFFFFFFFFF9CFF
(1713129522.718898) can0 18F00400#F1BBFFF410FFF0FF
(1713129522.719494) can0 18FE6CEE#7A104000FFFFC301
(1713129522.726235) can0 18ECFF17#202A0006FFCAFE00
(1713129522.775499) can0 18EBFF17#01C0FF13F824FE23
(1713129522.807375) can0 18F00400#F1BBFFCA11FFF0FF
(1713129522.807945) can0 18FE6CEE#7A104000FFFF0202
(1713129522.808428) can0 18F0010B#0000000000410B4F
(1713129522.809066) can0 18F00010#007D7DF4107D007D
(1713129522.809554) can0 18FEF100#C302020400001F00
(1713129522.810193) can0 18F00503#7EFFFF7E20442044
(1713129522.810817) can0 18FEFC21#FFE50AFFFFFFFFFF
(1713129522.811299) can0 18FEF227#FFFFFFFFFFFF9CFF
(1713129522.826251) can0 18FFA117#0300C3004C00C0FF
(1713129522.826718) can0 18EBFF17#02F764FE23F724FE
(1713129522.875399) can0 18EBFF17#0353F524FE53F744
(1713129522.895625) can0 18F00400#F1BBFF8912FFF0FF
(1713129522.896198) can0 18FE6CEE#7A104000FFFF4302
(1713129522.925915) can0 18EBFF17#04FE53F784FE4401
(1713129522.974342) can0 18F00400#F1BBFFAD13FFF0FF
(1713129522.974823) can0 18FE6CEE#7A104000FFFF8602
(1713129522.975325) can0 18F0010B#0000000000410B4F
(1713129522.975941) can0 18EBFF17#05248143F5C4FE43
(1713129522.976568) can0 18F00010#007D7DF4107D007D
(1713129522.977073) can0 18FEF100#C386020400001F00
(1713129522.977681) can0 18F00503#7EFFFF7E20442044
(1713129522.978193) can0 18FEFC21#FFE50AFFFFFFFFFF
(1713129522.978820) can0 18FEF227#FFFFFFFFFFFF9CFF
(1713129523.026251) can0 18EBFF17#06F5E4FE43F86481
(1713129523.062002) can0 18F00400#F1BBFF3C15FFF0FF
(1713129523.062571) can0 18FE6CEE#7A104000FFFFCA02
(1713129523.125845) can0 18DEEE17#FCFFFFFFFFFFFFFF
(1713129523.147722) can0 18F00400#F1BBFF0A17FFF0FF
(1713129523.148325) can0 18FE6CEE#7A104000FFFF0F03
(1713129523.148931) can0 18F0010B#0000000000410B4F
(1713129523.149383) can0 18F00010#007D7DF4107D007D
(1713129523.150036) can0 18FEF100#C30F030400001F00
(1713129523.150530) can0 18F00503#7EFFFF7E20442044
(1713129523.151181) can0 18FEFC21#FFE50CFFFFFFFFFF
(1713129523.151640) can0 18FEF227#FFFFFFFFFFFF9CFF
(1713129523.229039) can0 18F00400#F1BBFFFB18FFF0FF
(1713129523.229678) can0 18FE6CEE#7A104000FFFF5603
(1713129523.303871) can0 18F00400#F1BBFF031BFFF0FF
(1713129523.304320) can0 18FE6CEE#7A104000FFFF9F03
(1713129523.304941) can0 18F0010B#4000000000410B4F
(1713129523.305489) can0 18F00010#007D7DF4107D007D
(1713129523.306067) can0 18FEF100#C39F031400001F00
(1713129523.306694) can0 18F00503#7EFFFF7E20442044
(1713129523.307211) can0 18FEFC21#FFE50CFFFFFFFFFF
(1713129523.307819) can0 18FEF227#FFFFFFFFFFFF9BFF
(1713129523.396903) can0 18F00400#F1BBFF181DFFF0FF
(1713129523.397383) can0 18FE6CEE#7A104000FFFFE903
(1713129523.483146) can0 18F00400#F1BBFF411FFFF0FF
(1713129523.483577) can0 18FE6CEE#7A104000FFFF3604
(1713129523.484195) can0 18F0010B#4000000000410B4F
(1713129523.484700) can0 18F00010#007D7DF4107D007D
(1713129523.485317) can0 18FEF100#C336041400001F00
(1713129523.485932) can0 18F00503#7EFFFF7E20442044
(1713129523.486384) can0 18FEFC21#FFE50CFFFFFFFFFF
(1713129523.487069) can0 18FEF227#FFFFFFFFFFFF9DFF
(1713129523.487590) can0 18FEEE00#46FFD526FFFFFFFF
(1713129523.488195) can0 18FEF500#FFFFFFFF24FFFFFF
(1713129523.488697) can0 18FEAE30#FFFF1010FFFFFFFF
(1713129523.489319) can0 18FEC1EE#88A9D90000000000
(1713129523.568503) can0 18F00400#F1BCFF7B21FFF0FF
(1713129523.569073) can0 18FE6CEE#7A104000FFFF8504
(1713129523.645830) can0 18F00400#F1BDFFC523FFF0FF
(1713129523.646444) can0 18FE6CEE#7A104000FFFFD704
(1713129523.646951) can0 18F0010B#4000000000410B4F
(1713129523.647571) can0 18F00010#007D7DF4107D007D
(1713129523.648076) can0 18FEF100#C3D7041400001F00
(1713129523.648763) can0 18F00503#7EFFFF7E20442044
(1713129523.649198) can0 18FEFC21#FFE50CFFFFFFFFFF
(1713129523.649819) can0 18FEF227#FFFFFFFFFFFFA0FF
(1713129523.726214) can0 18ECFF17#202A0006FFCAFE00
(1713129523.731994) can0 18F00400#F1BDFF1826FFF0FF
(1713129523.732435) can0 18FE6CEE#7A104000FFFF2A05
(1713129523.775385) can0 18EBFF17#01C0FF13F824FE23
(1713129523.818506) can0 18F00400#F1BCFF7328FFF0FF
(1713129523.818970) can0 18FE6CEE#7A104000FFFF8005
(1713129523.819570) can0 18F0010B#4000000000410B4F
(1713129523.820064) can0 18F00010#007D7DF4107D007D
(1713129523.820705) can0 18FEF100#C380051400001F00
(1713129523.821183) can0 18F00503#7EFFFF7E20442044
(1713129523.821825) can0 18FEFC21#FFE50EFFFFFFFFFF
(1713129523.822446) can0 18FEF227#FFFFFFFFFFFF9FFF
(1713129523.826122) can0 18FFA117#0300C3004C00C0FF
(1713129523.826592) can0 18EBFF17#02F764FE23F724FE
(1713129523.875450) can0 18EBFF17#0353F524FE53F744
(1713129523.903248) can0 18F00400#F1BDFFCF2AFFF0FF
(1713129523.903828) can0 18FE6CEE#7A104000FFFFD605
(1713129523.925754) can0 18EBFF17#04FE53F784FE4401
(1713129523.975380) can0 18EBFF17#05248143F5C4FE43
(1713129523.988376) can0 18F00400#F1BDFF252DFFF0FF
(1713129523.988896) can0 18FE6CEE#7A104000FFFF2C06
(1713129523.989387) can0 18F0010B#4000000000410B4F
(1713129523.990017) can0 18F00010#007D7DF4107D007D
(1713129523.990560) can0 18FEF100#C32C061400001F00
(1713129523.991183) can0 18F00503#7EFFFF7E20442044
(1713129523.991683) can0 18FEFC21#FFE50EFFFFFFFFFF
(1713129523.992310) can0 18FEF227#FFFFFFFFFFFFA0FF
(1713129524.026157) can0 18EBFF17#06F5E4FE43F86481
(1713129524.074949) can0 18F00400#F1BDFF752FFFF0FF
(1713129524.075558) can0 18FE6CEE#7A104000FFFF8106
(1713129524.125729) can0 18DEEE17#FCFFFFFFFFFFFFFF
(1713129524.160074) can0 18F00400#F17FFFFF2FFFF0FF
(1713129524.160683) can0 18FE6CEE#7A104000FFFFCF06
(1713129524.161150) can0 18F0010B#4000000000410B4F
(1713129524.161822) can0 18F00010#007D7DF4107D007D
(1713129524.162307) can0 18FEF100#C3CF061400001F00
(1713129524.162946) can0 18F00503#7EFFFF7E20442044
(1713129524.163441) can0 18FEFC21#FFE50EFFFFFFFFFF
(1713129524.164070) can0 18FEF227#FFFFFFFFFFFF05FF
(1713129524.237703) can0 18F00400#F17DFF702FFFF0FF
(1713129524.238332) can0 18FE6CEE#7A104000FFFF1007
(1713129524.323585) can0 18F00400#F17DFFBD2DFFF0FF
(1713129524.324057) can0 18FE6CEE#7A104000FFFF4B07
(1713129524.324700) can0 18F0010B#4000000000410B4F
(1713129524.325195) can0 18F00010#007D7DF4107D007D
(1713129524.325821) can0 18FEF100#C34B071400001F00
(1713129524.326330) can0 18F00503#7EFFFF7E20442044
(1713129524.326950) can0 18FEFC21#FFE50EFFFFFFFFFF
(1713129524.327572) can0 18FEF227#FFFFFFFFFFFF00FF
(1713129524.409000) can0 18F00400#F17DFF192CFFF0FF
(1713129524.409545) can0 18FE6CEE#7A104000FFFF8007
(1713129524.494350) can0 18F00400#F17DFF832AFFF0FF
(1713129524.494949) can0 18FE6CEE#7A104000FFFFAF07
(1713129524.495448) can0 18F0010B#4000000000410B4F
(1713129524.496071) can0 18F00010#007D7DF4107D007D
(1713129524.496574) can0 18FEF100#C3AF071400001F00
(1713129524.497198) can0 18F00503#7EFFFF7E20442044
(1713129524.497683) can0 18FEFC21#FFE510FFFFFFFFFF
(1713129524.498322) can0 18FEF227#FFFFFFFFFFFF00FF
(1713129524.572581) can0 18F00400#F17DFFFD28FFF0FF
(1713129524.572950) can0 18FE6CEE#7A104000FFFFD907
(1713129524.657976) can0 18F00400#F17DFF8427FFF0FF
(1713129524.658454) can0 18FE6CEE#7A104000FFFFFE07
(1713129524.658935) can0 18F0010B#4000000000410B4F
(1713129524.659573) can0 18F00010#007D7DF4107D007D
(1713129524.660084) can0 18FEF100#C3FE071400001F00
(1713129524.660699) can0 18F00503#7EFFFF7E20442044
(1713129524.661324) can0 18FEFC21#FFE510FFFFFFFFFF
(1713129524.661947) can0 18FEF227#FFFFFFFFFFFF00FF
(1713129524.726128) can0 18ECFF17#202A0006FFCAFE00
(1713129524.744126) can0 18F00400#F17DFF1926FFF0FF
(1713129524.744581) can0 18FE6CEE#7A104000FFFF2108
(1713129524.775270) can0 18EBFF17#01C0FF13F824FE23
(1713129524.820657) can0 18F00400#F17DFF8D24FFF0FF
(1713129524.821081) can0 18FE6CEE#7A104000FFFF4108
(1713129524.821700) can0 18F0010B#4000000000410B4F
(1713129524.822185) can0 18F00010#007D7DF4107D007D
(1713129524.822820) can0 18FEF100#C341081400001F00
(1713129524.823291) can0 18F00503#81FFFF8120442044
(1713129524.823948) can0 18FEFC21#FFE510FFFFFFFFFF
(1713129524.824571) can0 18FEF227#FFFFFFFFFFFF00FF
(1713129524.825947) can0 18FFA117#0300C3004C00C0FF
(1713129524.826449) can0 18EBFF17#02F764FE23F724FE
(1713129524.875330) can0 18EBFF17#0353F524FE53F744
(1713129524.907262) can0 18F00400#F17DFFB020FFF0FF
(1713129524.907775) can0 18FE6CEE#7A104000FFFF5D08
(1713129524.925723) can0 18EBFF17#04FE53F784FE4401
(1713129524.975249) can0 18EBFF17#05248143F5C4FE43
(1713129524.992950) can0 18F00400#F17DFF4A1DFFF0FF
(1713129524.993397) can0 18FE6CEE#7A104000FFFF7708
(1713129524.994061) can0 18F0010B#4000000000410B4F
(1713129524.994686) can0 18F00010#007D7DF4107D007D
(1713129524.995186) can0 18FEF100#C377081400001F00
(1713129524.995811) can0 18F00503#81FFFF8120442044
(1713129524.996311) can0 18FEFC21#FFE510FFFFFFFFFF
(1713129524.996898) can0 18FEF227#FFFFFFFFFFFF00FF
(1713129525.026095) can0 18EBFF17#06F5E4FE43F86481
(1713129525.070410) can0 18F00400#F187FF5A1CFFF0FF
(1713129525.070892) can0 18FE6CEE#7A104000FFFF8E08
(1713129525.125762) can0 18DEEE17#FCFFFFFFFFFFFFFF
(1713129525.164375) can0 18F00400#F189FFA31CFFF0FF
(1713129525.164830) can0 18FE6CEE#7A104000FFFFA208
(1713129525.165458) can0 18F0010B#4000000000410B4F
(1713129525.165962) can0 18F00010#007D7DF4107D007D
(1713129525.166572) can0 18FEF100#C3A2081400001F00
(1713129525.167061) can0 18F00503#81FFFF8120442044
(1713129525.167701) can0 18FEFC21#FFE510FFFFFFFFFF
(1713129525.168323) can0 18FEF227#FFFFFFFFFFFF20FF
(1713129525.168822) can0 18FEEE00#46FF3A27FFFFFFFF
(1713129525.169448) can0 18FEF500#FFFFFFFF24FFFFFF
(1713129525.169935) can0 18FEAE30#FFFF1010FFFFFFFF
(1713129525.170575) can0 18FEC1EE#95A9D90000000000
(1713129525.254760) can0 18F00400#F1C3FF361DFFF0FF
(1713129525.255201) can0 18FE6CEE#7A104000FFFFB808
(1713129525.350303) can0 18F00400#F1C5FFA51DFFF0FF
(1713129525.350767) can0 18FE6CEE#7A104000FFFFD408
(1713129525.351268) can0 18F0010B#4000000000410B4F
(1713129525.351944) can0 18F00010#007D7DF4107D007D
(1713129525.352564) can0 18FEF100#C3D4081400001F00
(1713129525.353063) can0 18F00503#81FFFF8120442044
(1713129525.353688) can0 18FEFC21#FFE510FFFFFFFFFF
(1713129525.354189) can0 18FEF227#FFFFFFFFFFFFB4FF
(1713129525.437333) can0 18F00400#F1C4FF241EFFF0FF
(1713129525.437938) can0 18FE6CEE#7A104000FFFFF608
(1713129525.528002) can0 18F00400#F1C4FFB81EFFF0FF
(1713129525.528441) can0 18FE6CEE#7A104000FFFF1E09
(1713129525.529083) can0 18F0010B#4000000000410B4F
(1713129525.529572) can0 18F00010#007D7DF4107D007D
(1713129525.530202) can0 18FEF100#C31E091400001F00
(1713129525.530693) can0 18F00503#81FFFF8120442044
(1713129525.531325) can0 18FEFC21#FFE510FFFFFFFFFF
(1713129525.531950) can0 18FEF227#FFFFFFFFFFFFB1FF
(1713129525.621853) can0 18F00400#F1C4FF621FFFF0FF
(1713129525.622337) can0 18FE6CEE#7A104000FFFF4D09
(1713129525.718538) can0 18F00400#F1C4FF2320FFF0FF
(1713129525.719015) can0 18FE6CEE#7A104000FFFF8309
(1713129525.719639) can0 18F0010B#4000000000410B4F
(1713129525.720137) can0 18F00010#007D7DF4107D007D
(1713129525.720763) can0 18FEF100#C383091400001F00
(1713129525.721336) can0 18F00503#81FFFF8120442044
(1713129525.721964) can0 18FEFC21#FFE510FFFFFFFFFF
(1713129525.722575) can0 18FEF227#FFFFFFFFFFFFB2FF
(1713129525.725914) can0 18ECFF17#202A0006FFCAFE00
(1713129525.775258) can0 18EBFF17#01C0FF13F824FE23
(1713129525.804753) can0 18F00400#F1C4FFF220FFF0FF
(1713129525.805216) can0 18FE6CEE#7A104000FFFFBF09
(1713129525.825593) can0 18FFA117#0300C3004C00C0FF
(1713129525.826206) can0 18EBFF17#02F764FE23F724FE
(1713129525.875169) can0 18EBFF17#0353F524FE53F744
(1713129525.888129) can0 18F00400#F1C4FFD121FFF0FF
(1713129525.888585) can0 18FE6CEE#7A104000FFFFFF09
(1713129525.889206) can0 18F0010B#4000000000410B4F
(1713129525.889703) can0 18F00010#007D7DF4107D007D
(1713129525.890333) can0 18FEF100#C3FF091400001F00
(1713129525.890958) can0 18F00503#81FFFF8120442044
(1713129525.891459) can0 18FEFC21#FFE510FFFFFFFFFF
(1713129525.892083) can0 18FEF227#FFFFFFFFFFFFB3FF
(1713129525.926011) can0 18EBFF17#04FE53F784FE4401
(1713129525.972514) can0 18F00400#F1C4FFBD22FFF0FF
(1713129525.972945) can0 18FE6CEE#7A104000FFFF440A
(1713129525.975213) can0 18EBFF17#05248143F5C4FE43
(1713129526.025637) can0 18EBFF17#06F5E4FE43F86481
(1713129526.047253) can0 18F00400#F1C4FFB523FFF0FF
(1713129526.047703) can0 18FE6CEE#7A104000FFFF8D0A
(1713129526.048335) can0 18F0010B#4000000000410B4F
(1713129526.048959) can0 18F00010#007D7DF4107D007D
(1713129526.049440) can0 18FEF100#C38D0A1400001F00
(1713129526.049967) can0 18F00503#81FFFF8120442044
(1713129526.050581) can0 18FEFC21#FFE510FFFFFFFFFF
(1713129526.051204) can0 18FEF227#FFFFFFFFFFFFB3FF
(1713129526.125966) can0 18DEEE17#FCFFFFFFFFFFFFFF
(1713129526.139135) can0 18F00400#F1C4FFB624FFF0FF
(1713129526.139585) can0 18FE6CEE#7A104000FFFFDA0A
(1713129526.221342) can0 18F00400#F1C4FFBE25FFF0FF
(1713129526.221955) can0 18FE6CEE#7A104000FFFF280B
(1713129526.222454) can0 18F0010B#4000000000410B4F
(1713129526.223087) can0 18F00010#007D7DF4107D007D
(1713129526.223598) can0 18FEF100#C3280B1400001F00
(1713129526.224213) can0 18F00503#81FFFF8120442044
(1713129526.224748) can0 18FEFC21#FFE510FFFFFFFFFF
(1713129526.225332) can0 18FEF227#FFFFFFFFFFFFB3FF
(1713129526.307144) can0 18F00400#F1C4FFCD26FFF0FF
(1713129526.307683) can0 18FE6CEE#7A104000FFFF790B
(1713129526.398787) can0 18F00400#F1C4FFE227FFF0FF
(1713129526.399257) can0 18FE6CEE#7A104000FFFFCC0B
(1713129526.399881) can0 18F0010B#4000000000410B4F
(1713129526.400505) can0 18F00010#007D7DF4107D007D
(1713129526.401010) can0 18FEF100#C3CC0B1400001F00
(1713129526.401718) can0 18F00503#81FFFF8120442044
(1713129526.402188) can0 18FEFC21#FFE512FFFFFFFFFF
(1713129526.402830) can0 18FEF227#FFFFFFFFFFFFB3FF
(1713129526.484383) can0 18F00400#F1C4FFFA28FFF0FF
(1713129526.484959) can0 18FE6CEE#7A104000FFFF200C
(1713129526.558913) can0 18F00400#F1C4FF172AFFF0FF
(1713129526.559382) can0 18FE6CEE#7A104000FFFF760C
(1713129526.560006) can0 18F0010B#4000000000410B4F
(1713129526.560506) can0 18F00010#007D7DF4107D007D
(1713129526.561170) can0 18FEF100#C3760C1400001F00
(1713129526.561663) can0 18F00503#81FFFF8120442044
(1713129526.562333) can0 18FEFC21#FFE512FFFFFFFFFF
(1713129526.562954) can0 18FEF227#FFFFFFFFFFFFB3FF
(1713129526.652906) can0 18F00400#F1C4FF342BFFF0FF
(1713129526.653329) can0 18FE6CEE#7A104000FFFFCC0C
(1713129526.725553) can0 18ECFF17#202A0006FFCAFE00
(1713129526.739020) can0 18F00400#F1C4FF542CFFF0FF
(1713129526.739467) can0 18FE6CEE#7A104000FFFF230D
(1713129526.740068) can0 18F0010B#4000000000410B4F
(1713129526.740707) can0 18F00010#007D7DF4107D007D
(1713129526.741206) can0 18FEF100#C3230D1400001F00
(1713129526.741836) can0 18F00503#81FFFF8120442044
(1713129526.742348) can0 18FEFC21#FFE512FFFFFFFFFF
(1713129526.742955) can0 18FEF227#FFFFFFFFFFFFB3FF
(1713129526.775262) can0 18EBFF17#01C0FF13F824FE23
(1713129526.825733) can0 18FFA117#0300C3004C00C0FF
(1713129526.826336) can0 18EBFF17#02F764FE23F724FE
(1713129526.826776) can0 18F00400#F1C4FF742DFFF0FF
(1713129526.827455) can0 18FE6CEE#7A104000FFFF7B0D
(1713129526.875039) can0 18EBFF17#0353F524FE53F744
(1713129526.911915) can0 18F00400#F18EFF472EFFF0FF
(1713129526.912514) can0 18FE6CEE#7A104000FFFFD20D
(1713129526.913008) can0 18F0010B#4000000000410B4F
(1713129526.913637) can0 18F00010#007D7DF4107D007D
(1713129526.914133) can0 18FEF100#C3D20D1400001F00
(1713129526.914758) can0 18F00503#81FFFF8120442044
(1713129526.915258) can0 18FEFC21#FFE512FFFFFFFFFF
(1713129526.915883) can0 18FEF227#FFFFFFFFFFFF2CFF
(1713129526.916508) can0 18FEEE00#47FF9A27FFFFFFFF
(1713129526.917009) can0 18FEF500#FFFFFFFF24FFFFFF
(1713129526.917636) can0 18FEAE30#FFFF1010FFFFFFFF
(1713129526.918132) can0 18FEC1EE#A8A9D90000000000
(1713129526.925649) can0 18EBFF17#04FE53F784FE4401
(1713129526.975269) can0 18EBFF17#05248143F5C4FE43
(1713129526.989442) can0 18F00400#F17DFFE42DFFF0FF
(1713129526.990028) can0 18FE6CEE#7A104000FFFF220E
(1713129527.025640) can0 18EBFF17#06F5E4FE43F86481
(1713129527.076041) can0 18F00400#F17DFFB02CFFF0FF
(1713129527.076509) can0 18FE6CEE#7A104000FFFF6B0E
(1713129527.077134) can0 18F0010B#4000000000410B4F
(1713129527.077638) can0 18F00010#007D7DF4107D007D
(1713129527.078259) can0 18FEF100#C36B0E1400001F00
(1713129527.078883) can0 18F00503#81FFFF8120442044
(1713129527.079471) can0 18FEFC21#FFE514FFFFFFFFFF
(1713129527.080009) can0 18FEF227#FFFFFFFFFFFF00FF
(1713129527.125734) can0 18DEEE17#FCFFFFFFFFFFFFFF
(1713129527.154288) can0 18F00400#F17DFF152BFFF0FF
(1713129527.154759) can0 18FE6CEE#7A104000FFFFAF0E
(1713129527.241042) can0 18F00400#F17DFF8A29FFF0FF
(1713129527.241449) can0 18FE6CEE#7A104000FFFFEC0E
(1713129527.242062) can0 18F0010B#4000000000410B4F
(1713129527.242590) can0 18F00010#007D7DF4107D007D
(1713129527.243207) can0 18FEF100#C3EC0E1400001F00
(1713129527.243694) can0 18F00503#81FFFF8120442044
(1713129527.244330) can0 18FEFC21#FFE512FFFFFFFFFF
(1713129527.244917) can0 18FEF227#FFFFFFFFFFFF00FF
(1713129527.325851) can0 18FFA917#53FFFFFFFFFFFFFF
(1713129527.326334) can0 18D0FF17#53FFFFFFFFFFFFFF
(1713129527.327974) can0 18F00400#F17DFF0C28FFF0FF
(1713129527.328581) can0 18FE6CEE#7A104000FFFF230F
(1713129527.407513) can0 18F00400#F17DFF9C26FFF0FF
(1713129527.408088) can0 18FE6CEE#7A104000FFFF540F
(1713129527.408567) can0 18F0010B#4000000000410B4F
(1713129527.409207) can0 18F00010#007D7DF4107D007D
(1713129527.409703) can0 18FEF100#C3540F1400001F00
(1713129527.410333) can0 18F00503#81FFFF8120442044
(1713129527.410957) can0 18FEFC21#FFE512FFFFFFFFFF
(1713129527.411457) can0 18FEF227#FFFFFFFFFFFF00FF
(1713129527.494517) can0 18F00400#F17DFF3925FFF0FF
(1713129527.495093) can0 18FE6CEE#7A104000FFFF810F
(1713129527.573767) can0 18F00400#F17DFFE423FFF0FF
(1713129527.574342) can0 18FE6CEE#7A104000FFFFAA0F
(1713129527.574856) can0 18F0010B#4000000000410B4F
(1713129527.575460) can0 18F00010#007D7DF4107D007D
(1713129527.575961) can0 18FEF100#C3AA0F1400001F00
(1713129527.576582) can0 18F00503#81FFFF8120442044
(1713129527.577092) can0 18FEFC21#FFE512FFFFFFFFFF
(1713129527.577712) can0 18FEF227#FFFFFFFFFFFF00FF
(1713129527.673168) can0 18F00400#F17DFF4E22FFF0FF
(1713129527.673766) can0 18FE6CEE#7A104000FFFFD00F
(1713129527.725617) can0 18ECFF17#202A0006FFCAFE00
(1713129527.756378) can0 18F00400#F17DFF9620FFF0FF
(1713129527.756963) can0 18FE6CEE#7A104000FFFFF20F
(1713129527.757405) can0 18F0010B#4000000000410B4F
(1713129527.758083) can0 18F00010#007D7DF4107D007D
(1713129527.758710) can0 18FEF100#C3F20F1400001F00
(1713129527.759228) can0 18F00503#83FFFF8320442044
(1713129527.759836) can0 18FEFC21#FFE512FFFFFFFFFF
(1713129527.760336) can0 18FEF227#FFFFFFFFFFFF00FF
(1713129527.775146) can0 18EBFF17#01C0FF13F824FE23
(1713129527.825769) can0 18FFA117#0300C3004C00C0FF
(1713129527.826199) can0 18EBFF17#02F764FE23F724FE
(1713129527.851616) can0 18F00400#F18BFFAD20FFF0FF
(1713129527.852207) can0 18FE6CEE#7A104000FFFF1010
(1713129527.875042) can0 18EBFF17#0353F524FE53F744
(1713129527.925515) can0 18EBFF17#04FE53F784FE4401
(1713129527.939510) can0 18F00400#F18AFFE920FFF0FF
(1713129527.940090) can0 18FE6CEE#7A104000FFFF2C10
(1713129527.940573) can0 18F0010B#4000000000410B4F
(1713129527.941211) can0 18F00010#007D7DF4107D007D
(1713129527.941838) can0 18FEF100#C32C101400001F00
(1713129527.942320) can0 18F00503#83FFFF8320442044
(1713129527.942959) can0 18FEFC21#FFE512FFFFFFFFFF
(1713129527.943456) can0 18FEF227#FFFFFFFFFFFF21FF
(1713129527.975028) can0 18EBFF17#05248143F5C4FE43
(1713129528.018017) can0 18F00400#F1B6FF4A21FFF0FF
(1713129528.018594) can0 18FE6CEE#7A104000FFFF4710
(1713129528.025764) can0 18EBFF17#06F5E4FE43F86481
(1713129528.105519) can0 18F00400#F1C5FF6621FFF0FF
(1713129528.106092) can0 18FE6CEE#7A104000FFFF6110
(1713129528.106584) can0 18F0010B#4000000000410B4F
(1713129528.107210) can0 18F00010#007D7DF4107D007D
(1713129528.107715) can0 18FEF100#C361101400001F00
(1713129528.108279) can0 18F00503#83FFFF8320442044
(1713129528.108904) can0 18FEFC21#FFE512FFFFFFFFFF
(1713129528.109396) can0 18FEF227#FFFFFFFFFFFFB4FF
(1713129528.125732) can0 18DEEE17#FCFFFFFFFFFFFFFF
(1713129528.183739) can0 18F00400#F1C5FFA421FFF0FF
(1713129528.184221) can0 18FE6CEE#7A104000FFFF7A10
(1713129528.277918) can0 18F00400#F1C5FFE321FFF0FF
(1713129528.278388) can0 18FE6CEE#7A104000FFFF9510
(1713129528.279013) can0 18F0010B#4000000000410B4F
(1713129528.279512) can0 18F00010#007D7DF4107D007D
(1713129528.280140) can0 18FEF100#C395101400001F00
(1713129528.280720) can0 18F00503#83FFFF8320442044
(1713129528.281336) can0 18FEFC21#FFE412FFFFFFFFFF
(1713129528.281958) can0 18FEF227#FFFFFFFFFFFFB5FF
(1713129528.362775) can0 18F00400#F1C5FF2622FFF0FF
(1713129528.363213) can0 18FE6CEE#7A104000FFFFB110
(1713129528.459048) can0 18F00400#F1C5FF6B22FFF0FF
(1713129528.459466) can0 18FE6CEE#7A104000FFFFD010
(1713129528.460087) can0 18F0010B#4000000000410B4F
(1713129528.460714) can0 18F00010#007D7DF4107D007D
(1713129528.461233) can0 18FEF100#C3D0101400001F00
(1713129528.461816) can0 18F00503#83FFFF8320442044
(1713129528.462329) can0 18FEFC21#FFE412FFFFFFFFFF
(1713129528.462957) can0 18FEF227#FFFFFFFFFFFFB4FF
(1713129528.557168) can0 18F00400#F1C4FFB622FFF0FF
(1713129528.557768) can0 18FE6CEE#7A104000FFFFF110
(1713129528.641586) can0 18F00400#F1C6FF0723FFF0FF
(1713129528.642087) can0 18FE6CEE#7A104000FFFF1511
(1713129528.642596) can0 18F0010B#4000000000410B4F
(1713129528.643217) can0 18F00010#007D7DF4107D007D
(1713129528.643839) can0 18FEF100#C315111400001F00
(1713129528.644359) can0 18F00503#83FFFF8320442044
(1713129528.644961) can0 18FEFC21#FFE410FFFFFFFFFF
(1713129528.645469) can0 18FEF227#FFFFFFFFFFFFB7FF
(1713129528.646086) can0 18FEEE00#48FFF327FFFFFFFF
(1713129528.646714) can0 18FEF500#FFFFFFFF24FFFFFF
(1713129528.647228) can0 18FEAE30#FFFF1010FFFFFFFF
(1713129528.647837) can0 18FEC1EE#C4A9D90000000000
(1713129528.725570) can0 18ECFF17#202A0006FFCAFE00
(1713129528.736384) can0 18F00400#F1C6FF5D23FFF0FF
(1713129528.736968) can0 18FE6CEE#7A104000FFFF3C11
(1713129528.775021) can0 18EBFF17#01C0FF13F824FE23
(1713129528.823521) can0 18F00400#F1C5FFB623FFF0FF
(1713129528.824093) can0 18FE6CEE#7A104000FFFF6611
(1713129528.824570) can0 18F0010B#4000000000410B4F
(1713129528.825213) can0 18F00010#007D7DF4107D007D
(1713129528.825699) can0 18EBFF17#02F764FE23F724FE
(1713129528.826338) can0 18FEF100#C366111400001F00
(1713129528.826962) can0 18F00503#83FFFF8320442044
(1713129528.827462) can0 18FEFC21#FFE410FFFFFFFFFF
(1713129528.828088) can0 18FEF227#FFFFFFFFFFFFB5FF
(1713129528.828537) can0 18FFA117#0300C3004C00C0FF
(1713129528.874959) can0 18EBFF17#0353F524FE53F744
(1713129528.902986) can0 18F00400#F1C5FF1624FFF0FF
(1713129528.903485) can0 18FE6CEE#7A104000FFFF9311
(1713129528.925744) can0 18EBFF17#04FE53F784FE4401
(1713129528.975012) can0 18EBFF17#05248143F5C4FE43
(1713129528.993523) can0 18F00400#F1C5FF7B24FFF0FF
(1713129528.994009) can0 18FE6CEE#7A104000FFFFC211
(1713129528.994599) can0 18F0010B#4000000000410B4F
(1713129528.995233) can0 18F00010#007D7DF4107D007D
(1713129528.995839) can0 18FEF100#C3C2111400001F00
(1713129528.996321) can0 18F00503#83FFFF8320442044
(1713129528.996960) can0 18FEFC21#FFE410FFFFFFFFFF
(1713129528.997475) can0 18FEF227#FFFFFFFFFFFFB5FF
(1713129529.025562) can0 18EBFF17#06F5E4FE43F86481
(1713129529.071220) can0 18F00400#F1C5FFE324FFF0FF
(1713129529.071838) can0 18FE6CEE#7A104000FFFFF411
(1713129529.125391) can0 18DEEE17#FCFFFFFFFFFFFFFF
(1713129529.159595) can0 18F00400#F1C5FF5125FFF0FF
(1713129529.160076) can0 18FE6CEE#7A104000FFFF2912
(1713129529.160575) can0 18F0010B#4000000000410B4F
(1713129529.161223) can0 18F00010#007D7DF4107D007D
(1713129529.161840) can0 18FEF100#C329121400001F00
(1713129529.162358) can0 18F00503#83FFFF8320442044
(1713129529.163010) can0 18FEFC21#FFE410FFFFFFFFFF
(1713129529.163475) can0 18FEF227#FFFFFFFFFFFFB5FF
(1713129529.246519) can0 18F00400#F1C4FFC125FFF0FF
(1713129529.246976) can0 18FE6CEE#7A104000FFFF5F12
(1713129529.325601) can0 18F00400#F1C6FF3826FFF0FF
(1713129529.326213) can0 18FE6CEE#7A104000FFFF9712
(1713129529.326716) can0 18F0010B#4000000000410B4F
(1713129529.327340) can0 18F00010#007D7DF4107D007D
(1713129529.327861) can0 18FEF100#C397121400001F00
(1713129529.328463) can0 18F00503#83FFFF8320442044
(1713129529.328972) can0 18FEFC21#FFE410FFFFFFFFFF
(1713129529.329550) can0 18FEF227#FFFFFFFFFFFFB7FF
(1713129529.413550) can0 18F00400#F1C6FFB026FFF0FF
(1713129529.414117) can0 18FE6CEE#7A104000FFFFD112
(1713129529.492648) can0 18F00400#F1C6FF2B27FFF0FF
(1713129529.493212) can0 18FE6CEE#7A104000FFFF0D13
(1713129529.493702) can0 18F0010B#4000000000410B4F
(1713129529.494281) can0 18F00010#007D7DF4107D007D
(1713129529.494776) can0 18FEF100#C30D131400001F00
(1713129529.495389) can0 18F00503#83FFFF8320442044
(1713129529.495888) can0 18FEFC21#FFE412FFFFFFFFFF
(1713129529.496579) can0 18FEF227#FFFFFFFFFFFFB8FF
(1713129529.580409) can0 18F00400#F1C6FFAA27FFF0FF
(1713129529.580891) can0 18FE6CEE#7A104000FFFF4B13
(1713129529.660186) can0 18F00400#F1C6FF2A28FFF0FF
(1713129529.660799) can0 18FE6CEE#7A104000FFFF8913
(1713129529.661283) can0 18F0010B#4000000000410B4F
(1713129529.661923) can0 18F00010#007D7DF4107D007D
(1713129529.662424) can0 18FEF100#C389131400001F00
(1713129529.663049) can0 18F00503#83FFFF8320442044
(1713129529.663549) can0 18FEFC21#FFE412FFFFFFFFFF
(1713129529.664173) can0 18FEF227#FFFFFFFFFFFFB7FF
(1713129529.725558) can0 18ECFF17#202A0006FFCAFE00
(1713129529.746910) can0 18F00400#F1C6FFAD28FFF0FF
(1713129529.747393) can0 18FE6CEE#7A104000FFFFC913
(1713129529.774779) can0 18EBFF17#01C0FF13F824FE23
(1713129529.825156) can0 18FFA117#0300C3004C00C0FF
(1713129529.825764) can0 18EBFF17#02F764FE23F724FE
(1713129529.826264) can0 18F00400#F1C7FF3129FFF0FF
(1713129529.826889) can0 18FE6CEE#7A104000FFFF0914
(1713129529.827390) can0 18F0010B#4000000000410B4F
(1713129529.828015) can0 18F00010#007D7DF4107D007D
(1713129529.828516) can0 18FEF100#C309141400001F00
(1713129529.829144) can0 18F00503#83FFFF8320442044
(1713129529.829765) can0 18FEFC21#FFE412FFFFFFFFFF
(1713129529.830265) can0 18FEF227#FFFFFFFFFFFFB9FF
(1713129529.874786) can0 18EBFF17#0353F524FE53F744
(1713129529.912905) can0 18F00400#F1C7FFB729FFF0FF
(1713129529.913516) can0 18FE6CEE#7A104000FFFF4B14
(1713129529.925529) can0 18EBFF17#04FE53F784FE4401
(1713129529.974780) can0 18EBFF17#05248143F5C4FE43
(1713129529.992537) can0 18F00400#F1C8FF402AFFF0FF
(1713129529.993146) can0 18FE6CEE#7A104000FFFF8E14
(1713129529.993642) can0 18F0010B#4000000000410B4F
(1713129529.994266) can0 18F00010#007D7DF4107D007D
(1713129529.994892) can0 18FEF100#C38E141400001F00
(1713129529.995391) can0 18F00503#83FFFF8320442044
(1713129529.996016) can0 18FEFC21#FFE412FFFFFFFFFF
(1713129529.996516) can0 18FEF227#FFFFFFFFFFFFBCFF
(1713129530.025415) can0 18EBFF17#06F5E4FE43F86481
(1713129530.080036) can0 18F00400#F1C8FF9C2AFFF0FF
(1713129530.080642) can0 18FE6CEE#7A104000FFFFD214
(1713129530.125159) can0 18DEEE17#FCFFFFFFFFFFFFFF
(1713129530.159157) can0 18F00400#F1C8FF202BFFF0FF
(1713129530.159642) can0 18FE6CEE#7A104000FFFF1215
(1713129530.160142) can0 18F0010B#4000000000410B4F
(1713129530.160766) can0 18F00010#007D7DF4107D007D
(1713129530.161392) can0 18FEF100#C312151400001F00
(1713129530.161892) can0 18F00503#83FFFF8320442044
(1713129530.162517) can0 18FEFC21#FFE412FFFFFFFFFF
(1713129530.163017) can0 18FEF227#FFFFFFFFFFFFBDFF
(1713129530.247782) can0 18F00400#F1C9FFA32BFFF0FF
(1713129530.248394) can0 18FE6CEE#7A104000FFFF5015
(1713129530.326030) can0 18F00400#F1C9FF222CFFF0FF
(1713129530.326645) can0 18FE6CEE#7A104000FFFF8D15
(1713129530.327143) can0 18F0010B#4000000000410B4F
(1713129530.327770) can0 18F00010#007D7DF4107D007D
(1713129530.328269) can0 18FEF100#C38D151400001F00
(1713129530.328893) can0 18F00503#83FFFF8320442044
(1713129530.329393) can0 18FEFC21#FFE412FFFFFFFFFF
(1713129530.330021) can0 18FEF227#FFFFFFFFFFFFC0FF
(1713129530.330644) can0 18FEEE00#48FF4828FFFFFFFF
(1713129530.331143) can0 18FEF500#FFFFFFFF24FFFFFF
(1713129530.331768) can0 18FEAE30#FFFF1010FFFFFFFF
(1713129530.332269) can0 18FEC1EE#E5A9D90000000000
(1713129530.414780) can0 18F00400#F1C9FF9D2CFFF0FF
(1713129530.415269) can0 18FE6CEE#7A104000FFFFC815
(1713129530.493909) can0 18F00400#F1C9FF162DFFF0FF
(1713129530.494519) can0 18FE6CEE#7A104000FFFF0216
(1713129530.495019) can0 18F0010B#4000000000410B4F
(1713129530.495643) can0 18F00010#007D7DF4107D007D
(1713129530.496144) can0 18FEF100#C302161400001F00
(1713129530.496769) can0 18F00503#83FFFF8320442044
(1713129530.497395) can0 18FEFC21#FFE414FFFFFFFFFF
(1713129530.497894) can0 18FEF227#FFFFFFFFFFFFC0FF
(1713129530.582408) can0 18F00400#F1C9FF8E2DFFF0FF
(1713129530.582894) can0 18FE6CEE#7A104000FFFF3C16
(1713129530.660911) can0 18F00400#F190FFCB2DFFF0FF
(1713129530.661395) can0 18FE6CEE#7A104000FFFF7416
(1713129530.661895) can0 18F0010B#4000000000410B4F
(1713129530.662520) can0 18F00010#007D7DF4107D007D
(1713129530.663020) can0 18FEF100#C374161400001F00
(1713129530.663645) can0 18F00503#83FFFF8320442044
(1713129530.664270) can0 18FEFC21#FFE414FFFFFFFFFF
(1713129530.664770) can0 18FEF227#FFFFFFFFFFFF30FF
(1713129530.725410) can0 18ECFF17#202A0006FFCAFE00
(1713129530.748781) can0 18F00400#F17DFF3B2DFFF0FF
(1713129530.749269) can0 18FE6CEE#7A104000FFFFAA16
(1713129530.774658) can0 18EBFF17#01C0FF13F824FE23
(1713129530.825033) can0 18FFA117#0300C3004C00C0FF
(1713129530.825518) can0 18EBFF17#02F764FE23F724FE
(1713129530.827150) can0 18F00400#F17DFF102CFFF0FF
(1713129530.827643) can0 18FE6CEE#7A104000FFFFDB16
(1713129530.828269) can0 18F0010B#4000000000410B4F
(1713129530.828770) can0 18F00010#007D7DF4107D007D
(1713129530.829396) can0 18FEF100#C3DB161400001F00
(1713129530.829948) can0 18F00503#83FFFF8320442044
(1713129530.830519) can0 18FEFC21#FFE414FFFFFFFFFF
(1713129530.831018) can0 18FEF227#FFFFFFFFFFFF00FF
(1713129530.874778) can0 18EBFF17#0353F524FE53F744
(1713129530.914906) can0 18F00400#F17DFF962AFFF0FF
(1713129530.915519) can0 18FE6CEE#7A104000FFFF0917
(1713129530.925401) can0 18EBFF17#04FE53F784FE4401
(1713129530.974658) can0 18EBFF17#05248143F5C4FE43
(1713129530.993905) can0 18F00400#F17DFF2329FFF0FF
(1713129530.994394) can0 18FE6CEE#7A104000FFFF3317
(1713129530.995019) can0 18F0010B#4000000000410B4F
(1713129530.995643) can0 18F00010#007D7DF4107D007D
(1713129530.996143) can0 18FEF100#C333171400001F00
(1713129530.996768) can0 18F00503#83FFFF8320442044
(1713129530.997268) can0 18FEFC21#FFE412FFFFFFFFFF
(1713129530.997894) can0 18FEF227#FFFFFFFFFFFF00FF
(1713129531.025528) can0 18EBFF17#06F5E4FE43F86481
(1713129531.082032) can0 18F00400#F17DFFB927FFF0FF
(1713129531.082643) can0 18FE6CEE#7A104000FFFF5917
(1713129531.125031) can0 18DEEE17#FCFFFFFFFFFFFFFF
(1713129531.160284) can0 18F00400#F17DFF5726FFF0FF
(1713129531.160897) can0 18FE6CEE#7A104000FFFF7C17
(1713129531.161396) can0 18F0010B#4000000000410B4F
(1713129531.161896) can0 18F00010#007D7DF4107D007D
(1713129531.162521) can0 18FEF100#C37C171400001F00
(1713129531.163021) can0 18F00503#83FFFF8320442044
(1713129531.163646) can0 18FEFC21#FFE412FFFFFFFFFF
(1713129531.164271) can0 18FEF227#FFFFFFFFFFFF00FF
(1713129531.248287) can0 18F00400#F17DFFFF24FFF0FF
(1713129531.248771) can0 18FE6CEE#7A104000FFFF9C17
(1713129531.329406) can0 18F00400#F17DFFB223FFF0FF
(1713129531.329897) can0 18FE6CEE#7A104000FFFFB917
(1713129531.330522) can0 18F0010B#4000000000410B4F
(1713129531.331147) can0 18F00010#007D7DF4107D007D
(1713129531.331647) can0 18FEF100#C3B9171400001F00
(1713129531.332272) can0 18F00503#83FFFF8320442044
(1713129531.332771) can0 18FEFC21#FFE412FFFFFFFFFF
(1713129531.333397) can0 18FEF227#FFFFFFFFFFFF00FF
(1713129531.415162) can0 18F00400#F17DFFC321FFF0FF
(1713129531.415772) can0 18FE6CEE#7A104000FFFFD517
(1713129531.493287) can0 18F00400#F17DFFB11EFFF0FF
(1713129531.493898) can0 18FE6CEE#7A104000FFFFEE17
(1713129531.494396) can0 18F0010B#4000000000410B4F
(1713129531.494897) can0 18F00010#007D7DF4107D007D
(1713129531.495522) can0 18FEF100#C3EE171400001F00
(1713129531.496022) can0 18F00503#85FFFF8520442044
(1713129531.496646) can0 18FEFC21#FFE412FFFFFFFFFF
(1713129531.497273) can0 18FEF227#FFFFFFFFFFFF00FF
(1713129531.580664) can0 18F00400#F17FFFE31CFFF0FF
(1713129531.581149) can0 18FE6CEE#7A104000FFFF0418
(1713129531.659037) can0 18F00400#F188FFF41CFFF0FF
(1713129531.659522) can0 18FE6CEE#7A104000FFFF1918
(1713129531.660148) can0 18F0010B#4000000000410B4F
(1713129531.660649) can0 18F00010#007D7DF4107D007D
(1713129531.661274) can0 18FEF100#C319181400001F00
(1713129531.661897) can0 18F00503#85FFFF8520442044
(1713129531.662398) can0 18FEFC21#FFE412FFFFFFFFFF
(1713129531.662898) can0 18FEF227#FFFFFFFFFFFF1DFF
(1713129531.725288) can0 18ECFF17#202A0006FFCAFE00
(1713129531.745533) can0 18F00400#F1BBFF371DFFF0FF
(1713129531.746023) can0 18FE6CEE#7A104000FFFF2D18
(1713129531.774663) can0 18EBFF17#01C0FF13F824FE23
(1713129531.822914) can0 18F00400#F1CAFF661DFFF0FF
(1713129531.823398) can0 18FE6CEE#7A104000FFFF4618
(1713129531.823899) can0 18F0010B#4000000000410B4F
(1713129531.824524) can0 18F00010#007D7DF4107D007D
(1713129531.825024) can0 18FEF100#C346181400001F00
(1713129531.825648) can0 18EBFF17#02F764FE23F724FE
(1713129531.826149) can0 18F00503#85FFFF8520442044
(1713129531.826774) can0 18FEFC21#FFE412FFFFFFFFFF
(1713129531.827274) can0 18FEF227#FFFFFFFFFFFFC2FF
(1713129531.827899) can0 18FFA117#0300C3004C00C0FF
(1713129531.874663) can0 18EBFF17#0353F524FE53F744
(1713129531.909662) can0 18F00400#F1CCFF811DFFF0FF
(1713129531.910149) can0 18FE6CEE#7A104000FFFF5818
(1713129531.925290) can0 18EBFF17#04FE53F784FE4401
(1713129531.974666) can0 18EBFF17#05248143F5C4FE43
(1713129531.996541) can0 18F00400#F1CCFF691DFFF0FF
(1713129531.997025) can0 18FE6CEE#7A104000FFFF6F18
(1713129531.997649) can0 18F0010B#4000000000410B4F
(1713129531.998148) can0 18F00010#007D7DF4107D007D
(1713129531.998774) can0 18FEF100#C36F181400001F00
(1713129531.999274) can0 18F00503#85FFFF8520442044
(1713129531.999899) can0 18FEFC21#FFE412FFFFFFFFFF
(1713129532.000399) can0 18FEF227#FFFFFFFFFFFFC6FF
(1713129532.001024) can0 18FEEE00#49FF9828FFFFFFFF
(1713129532.001648) can0 18FEF500#FFFFFFFF24FFFFFF
(1713129532.002147) can0 18FEAE30#FFFF1010FFFFFFFF
(1713129532.002771) can0 18FEC1EE#0EAAD90000000000
(1713129532.025288) can0 18EBFF17#06F5E4FE43F86481
(1713129532.074911) can0 18F00400#F1CCFF921DFFF0FF
(1713129532.075522) can0 18FE6CEE#7A104000FFFF8718
(1713129532.124939) can0 18DEEE17#FCFFFFFFFFFFFFFF
(1713129532.162065) can0 18F00400#F1CCFFBA1DFFF0FF
(1713129532.162551) can0 18FE6CEE#7A104000FFFFA118
(1713129532.163052) can0 18F0010B#4000000000410B4F
(1713129532.163677) can0 18F00010#007D7DF4107D007D
(1713129532.164302) can0 18FEF100#C3A1181400001F00
(1713129532.164802) can0 18F00503#85FFFF8520442044
(1713129532.165416) can0 18FEFC21#FFE412FFFFFFFFFF
(1713129532.165927) can0 18FEF227#FFFFFFFFFFFFC6FF
(1713129532.248566) can0 18F00400#F1CCFFE11DFFF0FF
(1713129532.249177) can0 18FE6CEE#7A104000FFFFBB18
(1713129532.324942) can0 18FFA917#53FFFFFFFFFFFFFF
(1713129532.325552) can0 18D0FF17#53FFFFFFFFFFFFFF
(1713129532.326429) can0 18F00400#F1CBFF081EFFF0FF
(1713129532.326928) can0 18FE6CEE#7A104000FFFFD718
(1713129532.327553) can0 18F0010B#4000000000410B4F
(1713129532.328053) can0 18F00010#007D7DF4107D007D
(1713129532.328678) can0 18FEF100#C3D7181400001F00
(1713129532.329178) can0 18F00503#85FFFF8520442044
(1713129532.329803) can0 18FEFC21#FFE410FFFFFFFFFF
(1713129532.330303) can0 18FEF227#FFFFFFFFFFFFC5FF
(1713129532.426568) can0 18F00400#F1CCFF2D1EFFF0FF
(1713129532.427177) can0 18FE6CEE#7A104000FFFFF118
(1713129532.504073) can0 18F00400#F1CBFF551EFFF0FF
(1713129532.504554) can0 18FE6CEE#7A104000FFFF1019
(1713129532.505181) can0 18F0010B#4000000000410B4F
(1713129532.505682) can0 18F00010#007D7DF4107D007D
(1713129532.506306) can0 18FEF100#C310191400001F00
(1713129532.506804) can0 18F00503#85FFFF8520442044
(1713129532.507429) can0 18FEFC21#FFE410FFFFFFFFFF
(1713129532.507928) can0 18FEF227#FFFFFFFFFFFFC3FF
(1713129532.595692) can0 18F00400#F1CCFF801EFFF0FF
(1713129532.596303) can0 18FE6CEE#7A104000FFFF3019
(1713129532.692442) can0 18F00400#F1CCFFAB1EFFF0FF
(1713129532.692928) can0 18FE6CEE#7A104000FFFF5119
(1713129532.693553) can0 18F0010B#4000000000410B4F
(1713129532.694053) can0 18F00010#007D7DF4107D007D
(1713129532.694679) can0 18FEF100#C351191400001F00
(1713129532.695178) can0 18F00503#85FFFF8520442044
(1713129532.695803) can0 18FEFC21#FFE410FFFFFFFFFF
(1713129532.696421) can0 18FEF227#FFFFFFFFFFFFC7FF
(1713129532.725444) can0 18ECFF17#202A0006FFCAFE00
(1713129532.770069) can0 18F00400#F1CBFFD61EFFF0FF
(1713129532.770556) can0 18FE6CEE#7A104000FFFF7519
(1713129532.774558) can0 18EBFF17#01C0FF13F824FE23
(1713129532.824943) can0 18FFA117#0300C3004C00C0FF
(1713129532.825430) can0 18EBFF17#02F764FE23F724FE
(1713129532.857069) can0 18F00400#F1CCFF041FFFF0FF
(1713129532.857680) can0 18FE6CEE#7A104000FFFF9919
(1713129532.858179) can0 18F0010B#4000000000410B4F
(1713129532.858805) can0 18F00010#007D7DF4107D007D
(1713129532.859303) can0 18FEF100#C399191400001F00
(1713129532.859930) can0 18F00503#85FFFF8520442044
(1713129532.860430) can0 18FEFC21#FFE410FFFFFFFFFF
(1713129532.861026) can0 18FEF227#FFFFFFFFFFFFC6FF
(1713129532.874566) can0 18EBFF17#0353F524FE53F744
(1713129532.925193) can0 18EBFF17#04FE53F784FE4401
(1713129532.944067) can0 18F00400#F1CBFF321FFFF0FF
(1713129532.944679) can0 18FE6CEE#7A104000FFFFBE19
(1713129532.974567) can0 18EBFF17#05248143F5C4FE43
(1713129533.023194) can0 18F00400#F1CCFF631FFFF0FF
(1713129533.023680) can0 18FE6CEE#7A104000FFFFE519
(1713129533.024304) can0 18F0010B#4000000000410B4F
(1713129533.024805) can0 18F00010#007D7DF4107D007D
(1713129533.025429) can0 18EBFF17#06F5E4FE43F86481
(1713129533.025930) can0 18FEF100#C3E5191400001F00
(1713129533.026554) can0 18F00503#85FFFF8520442044
(1713129533.027055) can0 18FEFC21#FFE410FFFFFFFFFF
(1713129533.027679) can0 18FEF227#FFFFFFFFFFFFC5FF
(1713129533.114565) can0 18F00400#F1CCFF951FFFF0FF
(1713129533.115179) can0 18FE6CEE#7A104000FFFF0D1A
(1713129533.125193) can0 18DEEE17#FCFFFFFFFFFFFFFF
(1713129533.201445) can0 18F00400#F1CBFFC81FFFF0FF
(1713129533.202057) can0 18FE6CEE#7A104000FFFF371A
(1713129533.202556) can0 18F0010B#4000000000410B4F
(1713129533.203181) can0 18F00010#007D7DF4107D007D
(1713129533.203680) can0 18FEF100#C3371A1400001F00
(1713129533.204306) can0 18F00503#85FFFF8520442044
(1713129533.204930) can0 18FEFC21#FFE410FFFFFFFFFF
(1713129533.205429) can0 18FEF227#FFFFFFFFFFFFC4FF
(1713129533.297445) can0 18F00400#F1CBFFFD1FFFF0FF
(1713129533.298055) can0 18FE6CEE#7A104000FFFF621A
(1713129533.383821) can0 18F00400#F1CBFF3220FFF0FF
(1713129533.384431) can0 18FE6CEE#7A104000FFFF8D1A
(1713129533.384931) can0 18F0010B#4000000000410B4F
(1713129533.385556) can0 18F00010#007D7DF4107D007D
(1713129533.386055) can0 18FEF100#C38D1A1400001F00
(1713129533.386680) can0 18F00503#85FFFF8520442044
(1713129533.387180) can0 18FEFC21#FFE410FFFFFFFFFF
(1713129533.387795) can0 18FEF227#FFFFFFFFFFFFC5FF
(1713129533.462946) can0 18F00400#F1CCFF3820FFF0FF
(1713129533.463430) can0 18FE6CEE#7A104000FFFFBA1A
(1713129533.550041) can0 18F00400#F1CCFF7220FFF0FF
(1713129533.550654) can0 18FE6CEE#7A104000FFFFE61A
(1713129533.551153) can0 18F0010B#4000000000410B4F
(1713129533.551779) can0 18F00010#007D7DF4107D007D
(1713129533.552279) can0 18FEF100#C3E61A1400001F00
(1713129533.552902) can0 18F00503#85FFFF8520442044
(1713129533.553402) can0 18FEFC21#FFE410FFFFFFFFFF
(1713129533.554028) can0 18FEF227#FFFFFFFFFFFFC7FF
(1713129533.629168) can0 18F00400#F1CCFFAE20FFF0FF
(1713129533.629654) can0 18FE6CEE#7A104000FFFF111B
(1713129533.716570) can0 18F00400#F1CCFFE920FFF0FF
(1713129533.717058) can0 18FE6CEE#7A104000FFFF3D1B
(1713129533.717683) can0 18F0010B#4000000000410B4F
(1713129533.718283) can0 18F00010#007D7DF4107D007D
(1713129533.718782) can0 18FEF100#C33D1B1400001F00
(1713129533.719283) can0 18F00503#85FFFF8520442044
(1713129533.719906) can0 18FEFC21#FFE410FFFFFFFFFF
(1713129533.720532) can0 18FEF227#FFFFFFFFFFFFC7FF
(1713129533.721030) can0 18FEEE00#4AFFE228FFFFFFFF
(1713129533.721657) can0 18FEF500#FFFFFFFF24FFFFFF
(1713129533.722157) can0 18FEAE30#FFFF1010FFFFFFFF
(1713129533.722783) can0 18FEC1EE#3BAAD90000000000
(1713129533.725185) can0 18ECFF17#202A0006FFCAFE00
(1713129533.774574) can0 18EBFF17#01C0FF13F824FE23
(1713129533.794696) can0 18F00400#F1CBFF1F21FFF0FF
(1713129533.795184) can0 18FE6CEE#7A104000FFFF661B
(1713129533.824825) can0 18FFA117#0300C3004C00C0FF
(1713129533.825308) can0 18EBFF17#02F764FE23F724FE
(1713129533.874575) can0 18EBFF17#0353F524FE53F744
(1713129533.881323) can0 18F00400#F1CAFF5421FFF0FF
(1713129533.881932) can0 18FE6CEE#7A104000FFFF8F1B
(1713129533.882433) can0 18F0010B#4000000000410B4F
(1713129533.883058) can0 18F00010#007D7DF4107D007D
(1713129533.883559) can0 18FEF100#C38F1B1400001F00
(1713129533.884183) can0 18F00503#85FFFF8520442044
(1713129533.884684) can0 18FEFC21#FFE410FFFFFFFFFF
(1713129533.885309) can0 18FEF227#FFFFFFFFFFFFC2FF
(1713129533.925198) can0 18EBFF17#04FE53F784FE4401
(1713129533.968911) can0 18F00400#F1CBFF8921FFF0FF
(1713129533.969323) can0 18FE6CEE#7A104000FFFFB91B
(1713129533.974544) can0 18EBFF17#05248143F5C4FE43
(1713129534.025061) can0 18EBFF17#06F5E4FE43F86481
(1713129534.048410) can0 18F00400#F1CAFFBE21FFF0FF
(1713129534.048983) can0 18FE6CEE#7A104000FFFFE21B
(1713129534.049449) can0 18F0010B#4000000000410B4F
(1713129534.050109) can0 18F00010#007D7DF4107D007D
(1713129534.050597) can0 18FEF100#C3E21B1400001F00
(1713129534.051234) can0 18F00503#85FFFF8520442044
(1713129534.051734) can0 18FEFC21#FFE410FFFFFFFFFF
(1713129534.052357) can0 18FEF227#FFFFFFFFFFFFC2FF
(1713129534.125268) can0 18DEEE17#FCFFFFFFFFFFFFFF
(1713129534.135928) can0 18F00400#F1CBFFF321FFF0FF
(1713129534.136406) can0 18FE6CEE#7A104000FFFF0D1C
(1713129534.217781) can0 18F00400#F1CBFF2822FFF0FF
(1713129534.218240) can0 18FE6CEE#7A104000FFFF371C
(1713129534.218856) can0 18F0010B#4000000000410B4F
(1713129534.219365) can0 18F00010#007D7DF4107D007D
(1713129534.219984) can0 18FEF100#C3371C1400001F00
(1713129534.220486) can0 18F00503#85FFFF8520442044
(1713129534.221114) can0 18FEFC21#FFE410FFFFFFFFFF
(1713129534.221720) can0 18FEF227#FFFFFFFFFFFFC4FF
(1713129534.302504) can0 18F00400#F1C8FF2D22FFF0FF
(1713129534.303106) can0 18FE6CEE#7A104000FFFF601C
(1713129534.399938) can0 18F00400#F1B7FF5E22FFF0FF
(1713129534.400418) can0 18FE6CEE#7A104000FFFF891C
(1713129534.400939) can0 18F0010B#4005000000410B4F
(1713129534.401587) can0 18F00010#007D7DF4107D007D
(1713129534.402116) can0 18FEF100#C3891C1400001F00
(1713129534.402780) can0 18F00503#85FFFF8520442044
(1713129534.403361) can0 18FEFC21#FFE410FFFFFFFFFF
(1713129534.403858) can0 18FEF227#FFFFFFFFFFFF92FF
(1713129534.477688) can0 18F00400#F19EFF8122FFF0FF
(1713129534.478165) can0 18FE6CEE#7A104000FFFFAF1C
(1713129534.565793) can0 18F00400#F189FF9D22FFF0FF
(1713129534.566224) can0 18FE6CEE#7A104000FFFFD21C
(1713129534.566882) can0 18F0010B#4005000000410B4F
(1713129534.567310) can0 18F00010#007D7DF4107D007D
(1713129534.567984) can0 18FEF100#C3D21C1400001F00
(1713129534.568474) can0 18F00503#85FFFF8520442044
(1713129534.569107) can0 18FEFC21#FFE410FFFFFFFFFF
(1713129534.569734) can0 18FEF227#FFFFFFFFFFFF1FFF
(1713129534.643786) can0 18F00400#F17DFFB522FFF0FF
(1713129534.644250) can0 18FE6CEE#7A104000FFFFF21C
(1713129534.724915) can0 18ECFF17#202A0006FFCAFE00
(1713129534.731782) can0 18F00400#F17DFFD222FFF0FF
(1713129534.732364) can0 18FE6CEE#7A104000FFFF0F1D
(1713129534.732866) can0 18F0010B#4005000000410B4F
(1713129534.733497) can0 18F00010#007D7DF4107D007D
(1713129534.733975) can0 18FEF100#C30F1D1400001F00
(1713129534.734608) can0 18F00503#85FFFF8520442044
(1713129534.735091) can0 18FEFC21#FFE410FFFFFFFFFF
(1713129534.735734) can0 18FEF227#FFFFFFFFFFFF00FF
(1713129534.774542) can0 18EBFF17#01C0FF13F824FE23
(1713129534.809542) can0 18F00400#F17DFFEB22FFF0FF
(1713129534.809997) can0 18FE6CEE#7A104000FFFF271D
(1713129534.825160) can0 18FFA117#0300C3004C00C0FF
(1713129534.825596) can0 18EBFF17#02F764FE23F724FE
(1713129534.874313) can0 18EBFF17#0353F524FE53F744
(1713129534.906189) can0 18F00400#F17DFF0123FFF0FF
(1713129534.906613) can0 18FE6CEE#7A104000FFFF3D1D
(1713129534.907232) can0 18F0010B#4005000000410B4F
(1713129534.907860) can0 18F00010#007D7DF4107D007D
(1713129534.908297) can0 18FEF100#C33D1D1400001F00
(1713129534.908926) can0 18F00503#85FFFF8520442044
(1713129534.909456) can0 18FEFC21#FFE410FFFFFFFFFF
(1713129534.910046) can0 18FEF227#FFFFFFFFFFFF00FF
(1713129534.925286) can0 18EBFF17#04FE53F784FE4401
(1713129534.974531) can0 18EBFF17#05248143F5C4FE43
(1713129534.991325) can0 18F00400#F17DFF1423FFF0FF
(1713129534.991923) can0 18FE6CEE#7A104000FFFF501D
(1713129535.024786) can0 18EBFF17#06F5E4FE43F86481
(1713129535.077190) can0 18F00400#F17DFF2323FFF0FF
(1713129535.077666) can0 18FE6CEE#7A104000FFFF5E1D
(1713129535.078287) can0 18F0010B#4004000000410B4F
(1713129535.078911) can0 18F00010#007D7DF4107D007D
(1713129535.079411) can0 18FEF100#C35E1D1400001F00
(1713129535.080036) can0 18F00503#85FFFF8520442044
(1713129535.080596) can0 18FEFC21#FFE410FFFFFFFFFF
(1713129535.081239) can0 18FEF227#FFFFFFFFFFFF00FF
(1713129535.125189) can0 18DEEE17#FCFFFFFFFFFFFFFF
(1713129535.174506) can0 18F00400#F17DFF3023FFF0FF
(1713129535.174992) can0 18FE6CEE#7A104000FFFF6A1D
(1713129535.253787) can0 18F00400#F17DFF3A23FFF0FF
(1713129535.254259) can0 18FE6CEE#7A104000FFFF751D
(1713129535.254857) can0 18F0010B#4003000000410B4F
(1713129535.255376) can0 18F00010#007D7DF4107D007D
(1713129535.255986) can0 18FEF100#C3751D1400001F00
(1713129535.256504) can0 18F00503#85FFFF8520442044
(1713129535.257107) can0 18FEFC21#FFE410FFFFFFFFFF
(1713129535.257609) can0 18FEF227#FFFFFFFFFFFF00FF
(1713129535.341055) can0 18F00400#F17DFF4023FFF0FF
(1713129535.341611) can0 18FE6CEE#7A104000FFFF7B1D
(1713129535.420011) can0 18F00400#F17DFF4523FFF0FF
(1713129535.420491) can0 18FE6CEE#7A104000FFFF811D
(1713129535.420992) can0 18F0010B#4003000000410B4F
(1713129535.421618) can0 18F00010#007D7DF4107D007D
(1713129535.422234) can0 18FEF100#C3811D1400001F00
(1713129535.422734) can0 18F00503#85FFFF8520442044
(1713129535.423359) can0 18FEFC21#FFE410FFFFFFFFFF
(1713129535.423985) can0 18FEF227#FFFFFFFFFFFF00FF
(1713129535.424484) can0 18FEEE00#4BFF2329FFFFFFFF
(1713129535.424932) can0 18FEF500#FFFFFFFF24FFFFFF
(1713129535.425590) can0 18FEAE30#FFFF1010FFFFFFFF
(1713129535.426235) can0 18FEC1EE#6EAAD90000000000
(1713129535.507794) can0 18F00400#F17DFF4923FFF0FF
(1713129535.508197) can0 18FE6CEE#7A104000FFFF851D
(1713129535.586042) can0 18F00400#F17DFF4923FFF0FF
(1713129535.586491) can0 18FE6CEE#7A104000FFFF861D
(1713129535.587038) can0 18F0010B#4003000000410B4F
(1713129535.587617) can0 18F00010#007D7DF4107D007D
(1713129535.588064) can0 18FEF100#C3861D1400001F00
(1713129535.588688) can0 18F00503#85FFFF8520442044
(1713129535.589306) can0 18FEFC21#FFE410FFFFFFFFFF
