(1715022788.803529) can0 18FECA21#00FF000000000000
(1715022788.804304) can0 18FFA121#CFFFFFFFFFFFFFFF
(1715022788.804934) can0 18FEFC21#FF73F0FFFFFFFFFF
(1715022788.805658) can0 18FFA221#FFFFCCFFFFFFFFF0
(1715022788.806426) can0 18FFA321#F0CFF4FFFFFFFFFF
(1715022788.807051) can0 18FE6CEE#7A508000FFFF3775
(1715022788.807656) can0 18F0010B#4006000000410B4F
(1715022788.808426) can0 18F00010#007D7DF4107D007D
(1715022788.809054) can0 18F00503#89FFFF897E7E0040
(1715022788.809783) can0 18FEF227#FFFFFFFFFFFF00FF
(1715022788.810435) can0 18FEAE30#FFFF7171FFFFFFFF
(1715022788.811177) can0 18FEC1EE#53FAF20000000000
(1715022788.811909) can0 18FECA0B#00FF000000000000
(1715022788.812555) can0 18FECA27#00FF000000000000
(1715022788.813176) can0 18FEE6EE#200D1605FF277D7D
(1715022788.813891) can0 18FEF100#4300000400FF1FFF
(1715022788.814653) can0 18FEF600#FF00FFFFFFFFFFFF
(1715022788.815276) can0 18FEEE00#83FF2C2EFFFFFFFF
(1715022788.816031) can0 18FEF500#FFFFFFFF24FFFFFF
(1715022788.816653) can0 18FECA00#00FF000000000000
(1715022788.817404) can0 18F00400#F17DFFE933FFF0FF
(1715022788.822424) can0 18FE6CEE#7A508000FFFF3775
(1715022788.823041) can0 18F0010B#4006000000410B4F
(1715022788.823786) can0 18F00010#007D7DF4107D007D
(1715022788.824416) can0 18F00503#89FFFF897E7E0040
(1715022788.825177) can0 18FEF227#FFFFFFFFFFFF00FF
(1715022788.825921) can0 18FEAE30#FFFF7171FFFFFFFF
(1715022788.826562) can0 18FEC1EE#53FAF20000000000
(1715022788.827289) can0 18FECA0B#00FF000000000000
(1715022788.827914) can0 18FECA27#00FF000000000000
(1715022788.828663) can0 18FEE6EE#200D1605FF277D7D
(1715022788.829288) can0 18FEF100#4300000400FF1FFF
(1715022788.830040) can0 18FEF600#FF00FFFFFFFFFFFF
(1715022788.830816) can0 18FEEE00#83FF2C2EFFFFFFFF
(1715022788.831431) can0 18FEF500#FFFFFFFF24FFFFFF
(1715022788.832179) can0 18FECA00#00FF000000000000
(1715022788.832825) can0 18FECA21#00FF000000000000
(1715022788.833553) can0 18FFA121#CFFFFFFFFFFFFFFF
(1715022788.834302) can0 18FEFC21#FF73F0FFFFFFFFFF
(1715022788.834941) can0 18FFA221#FFFFCCFFFFFFFFF0
(1715022788.835678) can0 18FFA321#F0CFF4FFFFFFFFFF
(1715022788.836299) can0 18FECA21#00FF000000000000
(1715022788.837051) can0 18FFA121#CFFFFFFFFFFFFFFF
(1715022788.837683) can0 18FEFC21#FF73F0FFFFFFFFFF
(1715022788.838429) can0 18F00400#F17DFFE933FFF0FF
(1715022788.839048) can0 18FEF100#4300000400FF1FFF
(1715022788.839802) can0 18FEF600#FF00FFFFFFFFFFFF
(1715022788.840432) can0 18FEEE00#83FF2C2EFFFFFFFF
(1715022788.841175) can0 18FEF500#FFFFFFFF24FFFFFF
(1715022788.841928) can0 18FECA00#00FF000000000000
(1715022788.842552) can0 18F00400#F17DFFE933FFF0FF
(1715022788.843302) can0 18FEF100#4300000400FF1FFF
(1715022788.843948) can0 18FEF600#FF00FFFFFFFFFFFF
(1715022788.844677) can0 18FE6CEE#7A508000FFFF3775
(1715022788.848181) can0 18FEAE30#FFFF7171FFFFFFFF
(1715022788.848927) can0 18FEC1EE#53FAF20000000000
(1715022788.849555) can0 18FEE6EE#200D1605FF277D7D
(1715022788.850301) can0 18FEF227#FFFFFFFFFFFF00FF
(1715022788.850922) can0 18FECA27#00FF000000000000
(1715022788.851682) can0 18FEEE00#83FF2C2EFFFFFFFF
(1715022788.852428) can0 18FEF500#FFFFFFFF24FFFFFF
(1715022788.853067) can0 18FECA00#00FF000000000000
(1715022788.853800) can0 18F00400#F17DFFE933FFF0FF
(1715022788.854433) can0 18FEF100#4300000400FF1FFF
(1715022788.855198) can0 18FEF600#FF00FFFFFFFFFFFF
(1715022788.855802) can0 18FEEE00#83FF2C2EFFFFFFFF
(1715022788.856436) can0 18FEF500#FFFFFFFF24FFFFFF
(1715022788.857177) can0 18F00503#89FFFF897E7E0040
(1715022788.857821) can0 18FFA221#FFFFCCFFFFFFFFF0
(1715022788.858558) can0 18FFA321#F0CFF4FFFFFFFFFF
(1715022788.859185) can0 18FECA21#00FF000000000000
(1715022788.859923) can0 18FE6CEE#7A508000FFFF3775
(1715022788.860554) can0 18F00503#89FFFF897E7E0040
(1715022788.861366) can0 18F0010B#4006000000410B4F
(1715022788.862028) can0 18FECA0B#00FF000000000000
(1715022788.862665) can0 18F0010B#4006000000410B4F
(1715022788.863417) can0 18FECA0B#00FF000000000000
(1715022788.865679) can0 18FECA00#00FF000000000000
(1715022788.866303) can0 18F00400#F17DFFE933FFF0FF
(1715022788.867054) can0 18FEF100#4300000400FF1FFF
(1715022788.867802) can0 18FEF600#FF00FFFFFFFFFFFF
(1715022788.868429) can0 18FEEE00#83FF2C2EFFFFFFFF
(1715022788.869191) can0 18FEF500#FFFFFFFF24FFFFFF
(1715022788.869816) can0 18FECA00#00FF000000000000
(1715022788.870544) can0 18F00400#F17DFFE933FFF0FF
(1715022788.871183) can0 18FEF100#4300000400FF1FFF
(1715022788.871927) can0 18FEF600#FF00FFFFFFFFFFFF
(1715022788.872553) can0 18FEEE00#83FF2C2EFFFFFFFF
(1715022788.873308) can0 18FEF500#FFFFFFFF24FFFFFF
(1715022788.874052) can0 18F00010#007D7DF4107D007D
(1715022788.874653) can0 18FEC1EE#53FAF20000000000
(1715022788.875427) can0 18FEE6EE#200D1605FF277D7D
(1715022788.876037) can0 18FEAE30#FFFF7171FFFFFFFF
(1715022788.876907) can0 18FFA121#CFFFFFFFFFFFFFFF
(1715022788.877678) can0 18FEFC21#FF73F0FFFFFFFFFF
(1715022788.878427) can0 18FFA221#FFFFCCFFFFFFFFF0
(1715022788.879033) can0 18FFA321#F0CFF4FFFFFFFFFF
(1715022788.879803) can0 18FECA21#00FF000000000000
(1715022788.880428) can0 18FFA121#CFFFFFFFFFFFFFFF
(1715022788.881158) can0 18FEFC21#FF73F0FFFFFFFFFF
(1715022788.881927) can0 18FFA221#FFFFCCFFFFFFFFF0
(1715022788.882522) can0 18FFA321#F0CFF4FFFFFFFFFF
(1715022788.883321) can0 18FECA21#00FF000000000000
(1715022788.883919) can0 18FFA121#CFFFFFFFFFFFFFFF
(1715022788.884678) can0 18FEF227#FFFFFFFFFFFF00FF
(1715022788.885429) can0 18FECA00#00FF000000000000
(1715022788.886051) can0 18F00400#F17DFFE933FFF0FF
(1715022788.886676) can0 18FEF100#4300000400FF1FFF
(1715022788.887408) can0 18FEF600#FF00FFFFFFFFFFFF
(1715022788.888035) can0 18FEEE00#83FF2C2EFFFFFFFF
(1715022788.888802) can0 18FEF500#FFFFFFFF24FFFFFF
(1715022788.889406) can0 18FECA00#00FF000000000000
(1715022788.890191) can0 18F00010#007D7DF4107D007D
(1715022788.890928) can0 18F00010#007D7DF4107D007D
(1715022788.891523) can0 18F00503#89FFFF897E7E0040
(1715022788.892301) can0 18FEAE30#FFFF7171FFFFFFFF
(1715022788.893426) can0 18F00400#F17DFFE933FFF0FF
(1715022788.894177) can0 18F00010#007D7DF4107D007D
(1715022788.894928) can0 18FEF100#4300000400FF1FFF
(1715022788.895552) can0 18F00503#89FFFF897E7E0040
(1715022788.896304) can0 18FEF600#FF00FFFFFFFFFFFF
(1715022788.897051) can0 18FEEE00#83FF2C2EFFFFFFFF
(1715022788.897679) can0 18FEF500#FFFFFFFF24FFFFFF
(1715022788.898306) can0 18FEAE30#FFFF7171FFFFFFFF
(1715022788.899053) can0 18FECA00#00FF000000000000
(1715022788.899661) can0 18FE6CEE#7A508000FFFF3775
(1715022788.900427) can0 18FEC1EE#53FAF20000000000
(1715022788.901025) can0 18FEE6EE#200D1605FF277D7D
(1715022788.901778) can0 18FE6CEE#7A508000FFFF3775
(1715022788.902418) can0 18FEC1EE#53FAF20000000000
(1715022788.903166) can0 18FECA27#00FF000000000000
(1715022788.903928) can0 18FEF227#FFFFFFFFFFFF00FF
(1715022788.904541) can0 18F0010B#4006000000410B4F
(1715022788.905302) can0 18FECA0B#00FF000000000000
(1715022788.909056) can0 18F00400#F17DFFE933FFF0FF
(1715022788.909662) can0 18F00010#007D7DF4107D007D
(1715022788.910415) can0 18FEF100#4300000400FF1FFF
(1715022788.911071) can0 18F00503#89FFFF897E7E0040
(1715022788.911801) can0 18FEF600#FF00FFFFFFFFFFFF
(1715022788.912533) can0 18FEEE00#83FF2C2EFFFFFFFF
(1715022788.913176) can0 18FEF500#FFFFFFFF24FFFFFF
(1715022788.913928) can0 18FEAE30#FFFF7171FFFFFFFF
(1715022788.914548) can0 18FECA00#00FF000000000000
(1715022788.915300) can0 18FECA27#00FF000000000000
(1715022788.915948) can0 18FEF227#FFFFFFFFFFFF00FF
(1715022788.916656) can0 18FECA27#00FF000000000000
(1715022788.917303) can0 18FEE6EE#200D1605FF277D7D
(1715022788.917912) can0 18FE6CEE#7A508000FFFF3775
(1715022788.918650) can0 18F0010B#4006000000410B4F
(1715022788.919293) can0 18FECA0B#00FF000000000000
(1715022788.920051) can0 18F0010B#4006000000410B4F
(1715022788.920667) can0 18FECA0B#00FF000000000000
(1715022788.921428) can0 18FEFC21#FF73F0FFFFFFFFFF
(1715022788.922036) can0 18FFA221#FFFFCCFFFFFFFFF0
(1715022788.922804) can0 18FFA321#F0CFF4FFFFFFFFFF
(1715022788.923554) can0 18FECA21#00FF000000000000
(1715022788.924185) can0 18FFA121#CFFFFFFFFFFFFFFF
(1715022788.924926) can0 18FEFC21#FF73F0FFFFFFFFFF
(1715022788.925678) can0 18FFA221#FFFFCCFFFFFFFFF0
(1715022788.926322) can0 18FFA321#F0CFF4FFFFFFFFFF
(1715022788.927055) can0 18FECA21#00FF000000000000
(1715022788.927692) can0 18F00400#F17DFFE933FFF0FF
(1715022788.928427) can0 18F0010B#4006000000410B4F
(1715022788.929073) can0 18F00010#007D7DF4107D007D
(1715022788.929804) can0 18FEF100#4300000400FF1FFF
(1715022788.930438) can0 18F00503#89FFFF897E7E0040
(1715022788.931177) can0 18FEF600#FF00FFFFFFFFFFFF
(1715022788.931928) can0 18FEF227#FFFFFFFFFFFF00FF
(1715022788.932551) can0 18FECA27#00FF000000000000
(1715022788.933298) can0 18FEF227#FFFFFFFFFFFF00FF
(1715022788.933933) can0 18FECA27#00FF000000000000
(1715022788.934657) can0 18FECA0B#00FF000000000000
(1715022788.935311) can0 18FEC1EE#53FAF20000000000
(1715022788.936049) can0 18FEE6EE#200D1605FF277D7D
(1715022788.936678) can0 18FE6CEE#7A508000FFFF3775
(1715022788.937425) can0 18FEC1EE#53FAF20000000000
(1715022788.938053) can0 18FEE6EE#200D1605FF277D7D
(1715022788.938695) can0 18FEEE00#83FF2C2EFFFFFFFF
(1715022788.939421) can0 18FEF500#FFFFFFFF24FFFFFF
(1715022788.940174) can0 18FECA00#00FF000000000000
(1715022788.940804) can0 18F00400#F17DFFE933FFF0FF
(1715022788.941517) can0 18FE6CEE#7A508000FFFF3775
(1715022788.942162) can0 18F0010B#4006000000410B4F
(1715022788.942916) can0 18F00010#007D7DF4107D007D
(1715022788.943550) can0 18FEF100#4300000400FF1FFF
(1715022788.944303) can0 18F00503#89FFFF897E7E0040
(1715022788.944935) can0 18FEF227#FFFFFFFFFFFF00FF
(1715022788.945688) can0 18FEF600#FF00FFFFFFFFFFFF
(1715022788.946426) can0 18FEEE00#83FF2C2EFFFFFFFF
(1715022788.947051) can0 18FEAE30#FFFF7171FFFFFFFF
(1715022788.947803) can0 18FEAE30#FFFF7171FFFFFFFF
(1715022788.948550) can0 18FFA121#CFFFFFFFFFFFFFFF
(1715022788.949792) can0 18FEF500#FFFFFFFF24FFFFFF
(1715022788.950588) can0 18FECA00#00FF000000000000
(1715022788.951303) can0 18FEC1EE#53FAF20000000000
(1715022788.951929) can0 18FEE6EE#200D1605FF277D7D
(1715022788.955431) can0 18F00400#F17DFFE933FFF0FF
(1715022788.956071) can0 18FE6CEE#7A508000FFFF3775
(1715022788.956802) can0 18F00010#007D7DF4107D007D
(1715022788.957396) can0 18FEF100#4300000400FF1FFF
(1715022788.958177) can0 18F00503#89FFFF897E7E0040
(1715022788.958929) can0 18FEF600#FF00FFFFFFFFFFFF
(1715022788.959553) can0 18FEEE00#83FF2C2EFFFFFFFF
(1715022788.960304) can0 18FEF500#FFFFFFFF24FFFFFF
(1715022788.960923) can0 18FEAE30#FFFF7171FFFFFFFF
(1715022788.961678) can0 18FEC1EE#53FAF20000000000
(1715022788.962427) can0 18FECA00#00FF000000000000
(1715022788.963059) can0 18FEE6EE#200D1605FF277D7D
(1715022788.963809) can0 18FECA0B#00FF000000000000
(1715022788.964551) can0 18F0010B#4006000000410B4F
(1715022788.965301) can0 18FECA0B#00FF000000000000
(1715022788.965927) can0 18FEFC21#FF73F0FFFFFFFFFF
(1715022788.966652) can0 18FFA221#FFFFCCFFFFFFFFF0
(1715022788.967325) can0 18FFA321#F0CFF4FFFFFFFFFF
(1715022788.968052) can0 18FECA21#00FF000000000000
(1715022788.968544) can0 18ECFF17#20120003FFCAFE00
(1715022788.969177) can0 18FFA121#CFFFFFFFFFFFFFFF
(1715022788.969914) can0 18FEFC21#FF73F0FFFFFFFFFF
(1715022788.970548) can0 18FFA221#FFFFCCFFFFFFFFF0
(1715022788.971303) can0 18FFA321#F0CFF4FFFFFFFFFF
(1715022788.971950) can0 18FECA21#00FF000000000000
(1715022788.972678) can0 18FFA121#CFFFFFFFFFFFFFFF
(1715022788.976919) can0 18FECA27#00FF000000000000
(1715022788.977556) can0 18FEF227#FFFFFFFFFFFF00FF
(1715022788.978304) can0 18FECA27#00FF000000000000
(1715022788.978946) can0 18F00400#F17DFFE933FFF0FF
(1715022788.979679) can0 18FE6CEE#7A508000FFFF3775
(1715022788.980309) can0 18F0010B#4006000000410B4F
(1715022788.981088) can0 18F00010#007D7DF4107D007D
(1715022788.981669) can0 18FEF100#4300000400FF1FFF
(1715022788.982418) can0 18F00503#89FFFF897E7E0040
(1715022788.983040) can0 18FEF227#FFFFFFFFFFFF00FF
(1715022788.983792) can0 18FEF600#FF00FFFFFFFFFFFF
(1715022788.984437) can0 18FEEE00#83FF2C2EFFFFFFFF
(1715022788.985664) can0 18FEFC21#FF73F0FFFFFFFFFF
(1715022788.986427) can0 18FFA221#FFFFCCFFFFFFFFF0
(1715022788.987059) can0 18FFA321#F0CFF4FFFFFFFFFF
(1715022788.987804) can0 18FECA21#00FF000000000000
(1715022788.988416) can0 18FFA121#CFFFFFFFFFFFFFFF
(1715022788.989178) can0 18FEFC21#FF73F0FFFFFFFFFF
(1715022788.989941) can0 18FFA221#FFFFCCFFFFFFFFF0
(1715022788.990552) can0 18FFA321#F0CFF4FFFFFFFFFF
(1715022788.991302) can0 18FECA21#00FF000000000000
(1715022788.991909) can0 18FFA121#CFFFFFFFFFFFFFFF
(1715022788.992653) can0 18FEFC21#FF73F0FFFFFFFFFF
(1715022788.993417) can0 18FFA221#FFFFCCFFFFFFFFF0
(1715022788.994034) can0 18FEF500#FFFFFFFF24FFFFFF
(1715022788.994802) can0 18FECA00#00FF000000000000
(1715022788.995412) can0 18FECA0B#00FF000000000000
(1715022788.996196) can0 18FEAE30#FFFF7171FFFFFFFF
(1715022788.996926) can0 18F00400#F17DFFE933FFF0FF
(1715022788.997552) can0 18F0010B#4006000000410B4F
(1715022788.998304) can0 18F00010#007D7DF4107D007D
(1715022788.998911) can0 18FEF100#4300000400FF1FFF
(1715022788.999669) can0 18F00503#89FFFF897E7E0040
(1715022789.000285) can0 18FEF600#FF00FFFFFFFFFFFF
(1715022789.001055) can0 18FEC1EE#53FAF20000000000
(1715022789.001683) can0 18FEE6EE#200D1605FF277D7D
(1715022789.002440) can0 18FE6CEE#7A508000FFFF3775
(1715022789.003036) can0 18FECA27#00FF000000000000
(1715022789.003803) can0 18FEF227#FFFFFFFFFFFF00FF
(1715022789.004568) can0 18FECA27#00FF000000000000
(1715022789.005179) can0 18FFA321#F0CFF4FFFFFFFFFF
(1715022789.005927) can0 18FEEE00#83FF2C2EFFFFFFFF
(1715022789.006552) can0 18FEF500#FFFFFFFF24FFFFFF
(1715022789.007317) can0 18FECA00#00FF000000000000
(1715022789.008051) can0 18FEC1EE#53FAF20000000000
(1715022789.008678) can0 18FEE6EE#240D1605FF277D7D
(1715022789.009427) can0 18F00400#F17DFFE933FFF0FF
(1715022789.010052) can0 18FE6CEE#7A508000FFFF3775
(1715022789.010802) can0 18F00010#007D7DF4107D007D
(1715022789.011424) can0 18FEF100#4300000400FF1FFF
(1715022789.012052) can0 18F00503#89FFFF897E7E0040
(1715022789.012800) can0 18FEF227#FFFFFFFFFFFF00FF
(1715022789.013436) can0 18FEF600#FF00FFFFFFFFFFFF
(1715022789.014170) can0 18FEEE00#83FF2C2EFFFFFFFF
(1715022789.014929) can0 18FEF500#FFFFFFFF24FFFFFF
(1715022789.015535) can0 18FEC1EE#53FAF20000000000
(1715022789.016296) can0 18FECA0B#00FF000000000000
(1715022789.016920) can0 18F0010B#4006000000410B4F
(1715022789.017657) can0 18FECA0B#00FF000000000000
(1715022789.018302) can0 18FECA21#00FF000000000000
(1715022789.018926) can0 18EBFF17#01C0FF53F784FE44
(1715022789.019554) can0 18FFA121#CFFFFFFFFFFFFFFF
(1715022789.020157) can0 18FEFC21#FF73F0FFFFFFFFFF
(1715022789.020900) can0 18FFA221#FFFFCCFFFFFFFFF0
(1715022789.021538) can0 18FFA321#F0CFF4FFFFFFFFFF
(1715022789.022315) can0 18FEAE30#FFFF7171FFFFFFFF
(1715022789.023038) can0 18FEAE30#FFFF7171FFFFFFFF
(1715022789.023661) can0 18FEE6EE#240D1605FF277D7D
(1715022789.024536) can0 18FE6CEE#7A508000FFFF3775
(1715022789.025303) can0 18F0010B#4006000000410B4F
(1715022789.025913) can0 18F00010#007D7DF4107D007D
(1715022789.026652) can0 18F00503#89FFFF897E7E0040
(1715022789.027287) can0 18FEAE30#FFFF7171FFFFFFFF
(1715022789.028052) can0 18FEC1EE#53FAF20000000000
(1715022789.028665) can0 18FECA0B#00FF000000000000
(1715022789.029425) can0 18FEE6EE#240D1605FF277D7D
(1715022789.030072) can0 18FECA00#00FF000000000000
(1715022789.030804) can0 18F00400#F17DFFE933FFF0FF
(1715022789.031444) can0 18FEF100#4300000400FF1FFF
(1715022789.032176) can0 18FEF600#FF00FFFFFFFFFFFF
(1715022789.032928) can0 18FEEE00#83FF2C2EFFFFFFFF
(1715022789.033556) can0 18FEF500#FFFFFFFF24FFFFFF
(1715022789.034301) can0 18FECA27#00FF000000000000
(1715022789.034912) can0 18FEF227#FFFFFFFFFFFF00FF
(1715022789.035678) can0 18FECA27#00FF000000000000
(1715022789.036426) can0 18FECA21#00FF000000000000
(1715022789.037057) can0 18FFA121#CFFFFFFFFFFFFFFF
(1715022789.037803) can0 18FEFC21#FF73F0FFFFFFFFFF
(1715022789.038447) can0 18FFA221#FFFFCCFFFFFFFFF0
(1715022789.039177) can0 18FFA321#F0CFF4FFFFFFFFFF
(1715022789.039927) can0 18FECA21#00FF000000000000
(1715022789.040553) can0 18FFA121#CFFFFFFFFFFFFFFF
(1715022789.041303) can0 18FEFC21#FF73F0FFFFFFFFFF
(1715022789.041928) can0 18FFA221#FFFFCCFFFFFFFFF0
(1715022789.042665) can0 18FFA321#F0CFF4FFFFFFFFFF
(1715022789.043309) can0 18FE6CEE#7A508000FFFF3775
(1715022789.044052) can0 18F0010B#4006000000410B4F
(1715022789.044663) can0 18F00010#007D7DF4107D007D
(1715022789.045428) can0 18F00503#89FFFF897E7E0040
(1715022789.046037) can0 18FEF227#FFFFFFFFFFFF00FF
(1715022789.046801) can0 18FEAE30#FFFF7171FFFFFFFF
(1715022789.047425) can0 18FEC1EE#53FAF20000000000
(1715022789.051792) can0 18FECA0B#00FF000000000000
(1715022789.052415) can0 18FECA00#00FF000000000000
(1715022789.053164) can0 18F00400#F17DFFE933FFF0FF
(1715022789.053794) can0 18FEF100#4300000400FF1FFF
(1715022789.054547) can0 18FEF600#FF00FFFFFFFFFFFF
(1715022789.055279) can0 18FEEE00#83FF2C2EFFFFFFFF
(1715022789.055923) can0 18FEF500#FFFFFFFF24FFFFFF
(1715022789.056677) can0 18FECA00#00FF000000000000
(1715022789.057409) can0 18FECA21#00FF000000000000
(1715022789.058026) can0 18FFA121#CFFFFFFFFFFFFFFF
(1715022789.058818) can0 18FEFC21#FF73F0FFFFFFFFFF
(1715022789.059426) can0 18FFA221#FFFFCCFFFFFFFFF0
(1715022789.060060) can0 18FFA321#F0CFF4FFFFFFFFFF
(1715022789.060803) can0 18FECA21#00FF000000000000
(1715022789.061519) can0 18FFA121#CFFFFFFFFFFFFFFF
(1715022789.062294) can0 18F00400#F17DFFE933FFF0FF
(1715022789.062929) can0 18F0010B#4006000000410B4F
(1715022789.063535) can0 18FEE6EE#240D1605FF277D7D
(1715022789.064304) can0 18FE6CEE#7A508000FFFF3775
(1715022789.065784) can0 18FECA27#00FF000000000000
(1715022789.066419) can0 18FEF227#FFFFFFFFFFFF00FF
(1715022789.067167) can0 18FECA27#00FF000000000000
(1715022789.067792) can0 18FEFC21#FF73F0FFFFFFFFFF
(1715022789.068554) can0 18FFA221#FFFFCCFFFFFFFFF0
(1715022789.069038) can0 18FFA117#0300C3004C00C0FF
(1715022789.069680) can0 18EBFF17#0201248143F5C4FE
(1715022789.070168) can0 18FFA321#F0CFF4FFFFFFFFFF
(1715022789.070927) can0 18FECA21#00FF000000000000
(1715022789.071556) can0 18FFA121#CFFFFFFFFFFFFFFF
(1715022789.072306) can0 18FEFC21#FF73F0FFFFFFFFFF
(1715022789.073053) can0 18FEF227#FFFFFFFFFFFF00FF
(1715022789.073680) can0 18FFA221#FFFFCCFFFFFFFFF0
(1715022789.074428) can0 18FFA321#F0CFF4FFFFFFFFFF
(1715022789.075071) can0 18FECA21#00FF000000000000
(1715022789.075803) can0 18FECA27#00FF000000000000
(1715022789.076428) can0 18FFA121#CFFFFFFFFFFFFFFF
(1715022789.077175) can0 18FEAE30#FFFF7171FFFFFFFF
(1715022789.077821) can0 18FEAE30#FFFF7171FFFFFFFF
(1715022789.078541) can0 18F00010#007D7DF4107D007D
(1715022789.079303) can0 18F00010#007D7DF4107D007D
(1715022789.079922) can0 18FECA0B#00FF000000000000
(1715022789.080676) can0 18F0010B#4006000000410B4F
(1715022789.081287) can0 18FECA0B#00FF000000000000
(1715022789.082052) can0 18FEC1EE#53FAF20000000000
(1715022789.082660) can0 18FEE6EE#240D1605FF277D7D
(1715022789.083473) can0 18FE6CEE#7A508000FFFF3775
(1715022789.084036) can0 18F00503#89FFFF897E7E0040
(1715022789.084817) can0 18F00503#89FFFF897E7E0040
(1715022789.085424) can0 18FEF100#4300000400FF1FFF
(1715022789.086176) can0 18FEF600#FF00FFFFFFFFFFFF
(1715022789.086929) can0 18FEEE00#83FF2C2EFFFFFFFF
(1715022789.087554) can0 18FEF500#FFFFFFFF24FFFFFF
(1715022789.093041) can0 18FECA00#00FF000000000000
(1715022789.093927) can0 18F00400#F17DFFE933FFF0FF
(1715022789.094546) can0 18FEF100#4300000400FF1FFF
(1715022789.095302) can0 18FEF600#FF00FFFFFFFFFFFF
(1715022789.095911) can0 18FEEE00#83FF2C2EFFFFFFFF
(1715022789.096679) can0 18FEF500#FFFFFFFF24FFFFFF
(1715022789.097428) can0 18FECA00#00FF000000000000
(1715022789.098053) can0 18F00400#F17DFFE933FFF0FF
(1715022789.098804) can0 18F0010B#4006000000410B4F
(1715022789.099433) can0 18F00010#007D7DF4107D007D
(1715022789.100068) can0 18FEF100#4300000400FF1FFF
(1715022789.100802) can0 18F00503#89FFFF897E7E0040
(1715022789.101540) can0 18FEC1EE#53FAF20000000000
(1715022789.104431) can0 18FEAE30#FFFF7171FFFFFFFF
(1715022789.105071) can0 18FEE6EE#240D1605FF277D7D
(1715022789.105686) can0 18FE6CEE#7A508000FFFF3775
(1715022789.106428) can0 18FEC1EE#53FAF20000000000
(1715022789.107040) can0 18FEE6EE#240D1605FF277D7D
(1715022789.107804) can0 18FECA0B#00FF000000000000
(1715022789.109428) can0 18FEF227#FFFFFFFFFFFF00FF
(1715022789.110066) can0 18FECA27#00FF000000000000
(1715022789.110651) can0 18FE6CEE#7A508000FFFF3775
(1715022789.111429) can0 18F0010B#4006000000410B4F
(1715022789.112059) can0 18F00010#007D7DF4107D007D
(1715022789.112800) can0 18F00503#89FFFF897E7E0040
(1715022789.113429) can0 18FEF227#FFFFFFFFFFFF00FF
(1715022789.114182) can0 18FEAE30#FFFF7171FFFFFFFF
(1715022789.114919) can0 18FEC1EE#53FAF20000000000
(1715022789.115558) can0 18FECA0B#00FF000000000000
(1715022789.116303) can0 18FECA27#00FF000000000000
(1715022789.116903) can0 18FEE6EE#240D1605FF277D7D
(1715022789.117557) can0 18FEFC21#FF73F0FFFFFFFFFF
(1715022789.118177) can0 18EBFF17#0343F86481FFFFFF
(1715022789.118802) can0 18FFA221#FFFFCCFFFFFFFFF0
(1715022789.119426) can0 18FFA321#F0CFF4FFFFFFFFFF
(1715022789.120151) can0 18FECA21#00FF000000000000
(1715022789.120777) can0 18FFA121#CFFFFFFFFFFFFFFF
(1715022789.121554) can0 18FEFC21#FF73F0FFFFFFFFFF
(1715022789.122186) can0 18FEF600#FF00FFFFFFFFFFFF
(1715022789.122931) can0 18FEEE00#83FF2C2EFFFFFFFF
(1715022789.123678) can0 18FEF500#FFFFFFFF24FFFFFF
(1715022789.124285) can0 18FECA00#00FF000000000000
(1715022789.125052) can0 18F00400#F17DFFE933FFF0FF
(1715022789.125660) can0 18FEF100#4300000400FF1FFF
(1715022789.126425) can0 18FE6CEE#7A508000FFFF3775
(1715022789.127046) can0 18F0010B#4006000000410B4F
(1715022789.127803) can0 18F00010#007D7DF4107D007D
(1715022789.128420) can0 18F00503#89FFFF897E7E0040
(1715022789.129176) can0 18FEF227#FFFFFFFFFFFF00FF
(1715022789.129939) can0 18FEAE30#FFFF7171FFFFFFFF
(1715022789.130541) can0 18FEC1EE#53FAF20000000000
(1715022789.131303) can0 18FECA0B#00FF000000000000
(1715022789.131910) can0 18FECA27#00FF000000000000
(1715022789.132677) can0 18FEE6EE#240D1605FF277D7D
(1715022789.138447) can0 18FEF600#FF00FFFFFFFFFFFF
(1715022789.139176) can0 18FEEE00#83FF2C2EFFFFFFFF
(1715022789.139801) can0 18FEF500#FFFFFFFF24FFFFFF
(1715022789.140567) can0 18FECA00#00FF000000000000
(1715022789.141142) can0 18F00400#F17DFFE933FFF0FF
(1715022789.141937) can0 18FEF100#4300000400FF1FFF
(1715022789.142542) can0 18FEF600#FF00FFFFFFFFFFFF
(1715022789.143276) can0 18FEEE00#83FF2C2EFFFFFFFF
(1715022789.144040) can0 18FEF500#FFFFFFFF24FFFFFF
(1715022789.144665) can0 18FECA00#00FF000000000000
(1715022789.145426) can0 18FFA221#FFFFCCFFFFFFFFF0
(1715022789.146062) can0 18FFA321#F0CFF4FFFFFFFFFF
(1715022789.146804) can0 18FECA21#00FF000000000000
(1715022789.147416) can0 18F00400#F17DFFE933FFF0FF
(1715022789.152183) can0 18F00010#007D7DF4107D007D
(1715022789.155194) can0 18F0010B#4006000000410B4F
(1715022789.155928) can0 18FECA0B#00FF000000000000
(1715022789.156553) can0 18FE6CEE#7A508000FFFF3775
(1715022789.157316) can0 18FEC1EE#53FAF20000000000
(1715022789.157928) can0 18FEE6EE#240D1605FF277D7D
(1715022789.158543) can0 18FE6CEE#7A508000FFFF3775
(1715022789.159302) can0 18F0010B#4006000000410B4F
(1715022789.159921) can0 18F00010#007D7DF4107D007D
(1715022789.160678) can0 18FEC1EE#53FAF20000000000
(1715022789.161302) can0 18FECA0B#00FF000000000000
(1715022789.162039) can0 18FEE6EE#240D1605FF277D7D
(1715022789.162680) can0 18FEAE30#FFFF7171FFFFFFFF
(1715022789.163408) can0 18FEAE30#FFFF7171FFFFFFFF
(1715022789.164060) can0 18FFA121#CFFFFFFFFFFFFFFF
(1715022789.164803) can0 18FEFC21#FF73F0FFFFFFFFFF
(1715022789.165554) can0 18FFA221#FFFFCCFFFFFFFFF0
(1715022789.166301) can0 18FFA321#F0CFF4FFFFFFFFFF
(1715022789.166928) can0 18FECA21#00FF000000000000
(1715022789.167677) can0 18FEF227#FFFFFFFFFFFF00FF
(1715022789.168308) can0 18F00503#89FFFF897E7E0040
(1715022789.169051) can0 18F00503#89FFFF897E7E0040
(1715022789.169679) can0 18FEF100#4300000400FF1FFF
(1715022789.170426) can0 18FEF600#FF00FFFFFFFFFFFF
(1715022789.171040) can0 18FEEE00#83FF2C2EFFFFFFFF
(1715022789.171804) can0 18FEF500#FFFFFFFF24FFFFFF
(1715022789.172407) can0 18FECA00#00FF000000000000
(1715022789.173197) can0 18FE6CEE#7A508000FFFF3775
(1715022789.173928) can0 18F0010B#4006000000410B4F
(1715022789.174541) can0 18F00010#007D7DF4107D007D
(1715022789.175303) can0 18F00503#89FFFF897E7E0040
(1715022789.175930) can0 18FEAE30#FFFF7171FFFFFFFF
(1715022789.176678) can0 18FEC1EE#53FAF20000000000
(1715022789.177288) can0 18FECA0B#00FF000000000000
(1715022789.178053) can0 18FEE6EE#240D1605FF277D7D
(1715022789.178657) can0 18FECA27#00FF000000000000
(1715022789.179427) can0 18FEF227#FFFFFFFFFFFF00FF
(1715022789.180046) can0 18FECA27#00FF000000000000
(1715022789.180804) can0 18F00400#F17DFFE933FFF0FF
(1715022789.181427) can0 18FEF100#4300000400FF1FFF
(1715022789.182162) can0 18FEF600#FF00FFFFFFFFFFFF
(1715022789.182910) can0 18FEEE00#83FF2C2EFFFFFFFF
(1715022789.183536) can0 18FEF500#FFFFFFFF24FFFFFF
(1715022789.184302) can0 18FECA00#00FF000000000000
(1715022789.184916) can0 18F00400#F17DFFE933FFF0FF
(1715022789.185680) can0 18FEF100#4300000400FF1FFF
(1715022789.186312) can0 18FEF600#FF00FFFFFFFFFFFF
(1715022789.187054) can0 18FEEE00#83FF2C2EFFFFFFFF
(1715022789.187804) can0 18FFA121#CFFFFFFFFFFFFFFF
(1715022789.188439) can0 18FEFC21#FF73F0FFFFFFFFFF
(1715022789.189178) can0 18FFA221#FFFFCCFFFFFFFFF0
(1715022789.189803) can0 18FFA321#F0CFF4FFFFFFFFFF
(1715022789.190548) can0 18FECA21#00FF000000000000
(1715022789.191299) can0 18FFA121#CFFFFFFFFFFFFFFF
(1715022789.191925) can0 18FEF227#FFFFFFFFFFFF00FF
(1715022789.192679) can0 18FECA27#00FF000000000000
(1715022789.193285) can0 18FE6CEE#7A508000FFFF3775
(1715022789.194067) can0 18F0010B#4006000000410B4F
(1715022789.194681) can0 18F00010#007D7DF4107D007D
(1715022789.195424) can0 18FEF500#FFFFFFFF24FFFFFF
(1715022789.196056) can0 18FECA00#00FF000000000000
(1715022789.196687) can0 18F00400#F17DFFE933FFF0FF
(1715022789.197427) can0 18FEF100#4300000400FF1FFF
(1715022789.198192) can0 18FEF600#FF00FFFFFFFFFFFF
(1715022789.198803) can0 18FEEE00#83FF2C2EFFFFFFFF
(1715022789.199551) can0 18FEF500#FFFFFFFF24FFFFFF
(1715022789.200184) can0 18F00503#89FFFF897E7E0040
(1715022789.203056) can0 18FEAE30#FFFF7171FFFFFFFF
(1715022789.205051) can0 18FEF227#FFFFFFFFFFFF00FF
(1715022789.205676) can0 18FECA27#00FF000000000000
(1715022789.206428) can0 18FECA00#00FF000000000000
(1715022789.207038) can0 18FEC1EE#53FAF20000000000
(1715022789.207804) can0 18FEE6EE#240D1605FF277D7D
(1715022789.209440) can0 18FEFC21#FF73F0FFFFFFFFFF
(1715022789.210179) can0 18FFA221#FFFFCCFFFFFFFFF0
(1715022789.210928) can0 18FFA321#F0CFF4FFFFFFFFFF
(1715022789.211554) can0 18FECA21#00FF000000000000
(1715022789.212304) can0 18FFA121#CFFFFFFFFFFFFFFF
(1715022789.212933) can0 18FEFC21#FF73F0FFFFFFFFFF
(1715022789.213677) can0 18FFA221#FFFFCCFFFFFFFFF0
(1715022789.214429) can0 18FFA321#F0CFF4FFFFFFFFFF
(1715022789.215070) can0 18FECA21#00FF000000000000
(1715022789.215806) can0 18FFA121#CFFFFFFFFFFFFFFF
(1715022789.216414) can0 18FEFC21#FF73F0FFFFFFFFFF
(1715022789.217178) can0 18FFA221#FFFFCCFFFFFFFFF0
(1715022789.217924) can0 18FECA0B#00FF000000000000
(1715022789.223429) can0 18F00010#007D7DF4107D007D
(1715022789.224416) can0 18F00503#89FFFF897E7E0040
(1715022789.225917) can0 18F00010#007D7DF4107D007D
(1715022789.226680) can0 18F00503#89FFFF897E7E0040
(1715022789.227309) can0 18F00400#F17DFFE933FFF0FF
(1715022789.228055) can0 18FEF100#4300000400FF1FFF
(1715022789.228678) can0 18FEF600#FF00FFFFFFFFFFFF
(1715022789.229428) can0 18FEEE00#83FF2C2EFFFFFFFF
(1715022789.230038) can0 18FEF500#FFFFFFFF24FFFFFF
(1715022789.230817) can0 18FECA00#00FF000000000000
(1715022789.231412) can0 18F00400#F17DFFE933FFF0FF
(1715022789.232175) can0 18FEF100#4300000400FF1FFF
(1715022789.232928) can0 18FEF600#FF00FFFFFFFFFFFF
(1715022789.233545) can0 18FEEE00#83FF2C2EFFFFFFFF
(1715022789.234304) can0 18FEF227#FFFFFFFFFFFF00FF
(1715022789.234931) can0 18FECA27#00FF000000000000
(1715022789.235680) can0 18FEF227#FFFFFFFFFFFF00FF
(1715022789.236309) can0 18F0010B#4006000000410B4F
(1715022789.237069) can0 18FE6CEE#7A508000FFFF3775
(1715022789.237676) can0 18FEC1EE#53FAF20000000000
(1715022789.238311) can0 18FEE6EE#240D1605FF277D7D
(1715022789.239036) can0 18FE6CEE#7A508000FFFF3775
(1715022789.239661) can0 18FEC1EE#53FAF20000000000
(1715022789.240428) can0 18FFA321#F0CFF4FFFFFFFFFF
(1715022789.241185) can0 18FECA21#00FF000000000000
(1715022789.241929) can0 18FEF500#FFFFFFFF24FFFFFF
(1715022789.242541) can0 18FECA00#00FF000000000000
(1715022789.243159) can0 18F00400#F17DFFE933FFF0FF
(1715022789.243937) can0 18F00010#007D7DF4107D007D
(1715022789.244680) can0 18FEF100#4300000400FF1FFF
(1715022789.245284) can0 18F00503#89FFFF897E7E0040
(1715022789.246064) can0 18FEF600#FF00FFFFFFFFFFFF
(1715022789.246681) can0 18FEEE00#83FF2C2EFFFFFFFF
(1715022789.247456) can0 18FEF500#FFFFFFFF24FFFFFF
(1715022789.248047) can0 18FFA121#CFFFFFFFFFFFFFFF
(1715022789.248803) can0 18FEFC21#FF73F0FFFFFFFFFF
(1715022789.249409) can0 18FFA221#FFFFCCFFFFFFFFF0
(1715022789.250176) can0 18FFA321#F0CFF4FFFFFFFFFF
(1715022789.250927) can0 18FECA21#00FF000000000000
(1715022789.251534) can0 18FEE6EE#240D1605FF277D7D
(1715022789.252278) can0 18FE6CEE#7A508000FFFF3775
(1715022789.252914) can0 18FEC1EE#53FAF20000000000
(1715022789.253658) can0 18FEE6EE#240D1605FF277D7D
(1715022789.254324) can0 18FEAE30#FFFF7171FFFFFFFF
(1715022789.255054) can0 18FEAE30#FFFF7171FFFFFFFF
(1715022789.255655) can0 18FEAE30#FFFF7171FFFFFFFF
(1715022789.256425) can0 18FECA27#00FF000000000000
(1715022789.257056) can0 18FEF227#FFFFFFFFFFFF00FF
(1715022789.257788) can0 18FECA27#00FF000000000000
(1715022789.258419) can0 18FECA0B#00FF000000000000
(1715022789.259178) can0 18F0010B#4006000000410B4F
(1715022789.259908) can0 18FECA0B#00FF000000000000
(1715022789.260554) can0 18F0010B#4006000000410B4F
(1715022789.261163) can0 18FE6CEE#7A508000FFFF3775
(1715022789.261914) can0 18F00010#007D7DF4107D007D
(1715022789.262667) can0 18F00503#89FFFF897E7E0040
(1715022789.263293) can0 18FEF227#FFFFFFFFFFFF00FF
(1715022789.263917) can0 18FEAE30#FFFF7171FFFFFFFF
(1715022789.264653) can0 18FECA00#00FF000000000000
(1715022789.265305) can0 18F00400#F17DFFE933FFF0FF
(1715022789.266053) can0 18FEF100#4300000400FF1FFF
(1715022789.266804) can0 18FEF600#FF00FFFFFFFFFFFF
(1715022789.268556) can0 18FFA121#CFFFFFFFFFFFFFFF
(1715022789.269304) can0 18FEFC21#FF73F0FFFFFFFFFF
(1715022789.269915) can0 18FFA221#FFFFCCFFFFFFFFF0
(1715022789.270683) can0 18FFA321#F0CFF4FFFFFFFFFF
(1715022789.271302) can0 18FECA21#00FF000000000000
(1715022789.272065) can0 18FFA121#CFFFFFFFFFFFFFFF
(1715022789.272804) can0 18FEFC21#FF73F0FFFFFFFFFF
(1715022789.273411) can0 18FFA221#FFFFCCFFFFFFFFF0
(1715022789.274177) can0 18FFA321#F0CFF4FFFFFFFFFF
(1715022789.274929) can0 18FECA21#00FF000000000000
(1715022789.275554) can0 18FFA121#CFFFFFFFFFFFFFFF
(1715022789.276303) can0 18FEFC21#FF73F0FFFFFFFFFF
(1715022789.276948) can0 18FEEE00#83FF2C2EFFFFFFFF
(1715022789.277680) can0 18FEF500#FFFFFFFF24FFFFFF
(1715022789.278311) can0 18FECA0B#00FF000000000000
(1715022789.279054) can0 18F00010#007D7DF4107D007D
(1715022789.279804) can0 18FECA27#00FF000000000000
(1715022789.280428) can0 18FEF227#FFFFFFFFFFFF00FF
(1715022789.281178) can0 18FECA27#00FF000000000000
(1715022789.281807) can0 18FEC1EE#53FAF20000000000
(1715022789.282540) can0 18FEE6EE#240D1605FF277D7D
(1715022789.283304) can0 18FE6CEE#7A508000FFFF3775
(1715022789.283946) can0 18FEC1EE#53FAF20000000000
(1715022789.284679) can0 18FEE6EE#240D1605FF277D7D
(1715022789.285288) can0 18FECA00#00FF000000000000
(1715022789.286054) can0 18F00400#F17DFFE933FFF0FF
(1715022789.286691) can0 18FEF100#4300000400FF1FFF
(1715022789.287429) can0 18FEF600#FF00FFFFFFFFFFFF
(1715022789.288179) can0 18FEEE00#83FF2C2EFFFFFFFF
(1715022789.288824) can0 18FEF500#FFFFFFFF24FFFFFF
(1715022789.289542) can0 18FECA00#00FF000000000000
(1715022789.290303) can0 18FFA221#FFFFCCFFFFFFFFF0
(1715022789.290928) can0 18FFA321#F0CFF4FFFFFFFFFF
(1715022789.291680) can0 18FECA21#00FF000000000000
(1715022789.292287) can0 18FFA121#CFFFFFFFFFFFFFFF
(1715022789.293051) can0 18FEFC21#FF73F0FFFFFFFFFF
(1715022789.293682) can0 18FFA221#FFFFCCFFFFFFFFF0
(1715022789.294427) can0 18FFA321#F0CFF4FFFFFFFFFF
(1715022789.295178) can0 18F0010B#4006000000410B4F
(1715022789.295803) can0 18FECA0B#00FF000000000000
(1715022789.296435) can0 18F0010B#4006000000410B4F
(1715022789.297180) can0 18FECA0B#00FF000000000000
(1715022789.297929) can0 18F0010B#4006000000410B4F
(1715022789.298546) can0 18FECA0B#00FF000000000000
(1715022789.299303) can0 18F00503#89FFFF897E7E0040
(1715022789.299917) can0 18F00503#89FFFF897E7E0040
(1715022789.300679) can0 18FEAE30#FFFF7171FFFFFFFF
(1715022789.301298) can0 18FEAE30#FFFF7171FFFFFFFF
(1715022789.302042) can0 18FE6CEE#7A508000FFFF3775
(1715022789.302670) can0 18FEC1EE#53FAF20000000000
(1715022789.303392) can0 18FEE6EE#240D1605FF277D7D
(1715022789.304045) can0 18F00400#F17DFFE933FFF0FF
(1715022789.304674) can0 18FEF100#4300000400FF1FFF
(1715022789.305435) can0 18FEF600#FF00FFFFFFFFFFFF
(1715022789.306180) can0 18FEEE00#83FF2C2EFFFFFFFF
(1715022789.306926) can0 18FEF500#FFFFFFFF24FFFFFF
(1715022789.307553) can0 18FECA00#00FF000000000000
(1715022789.308302) can0 18FECA21#00FF000000000000
(1715022789.308936) can0 18FFA121#CFFFFFFFFFFFFFFF
(1715022789.309678) can0 18FEFC21#FF73F0FFFFFFFFFF
(1715022789.310427) can0 18FFA221#FFFFCCFFFFFFFFF0
(1715022789.311056) can0 18FFA321#F0CFF4FFFFFFFFFF
(1715022789.311803) can0 18F00010#007D7DF4107D007D
(1715022789.312442) can0 18FEF227#FFFFFFFFFFFF00FF
(1715022789.313178) can0 18FECA27#00FF000000000000
(1715022789.313802) can0 18F00400#F17DFFE933FFF0FF
(1715022789.314437) can0 18FE6CEE#7A508000FFFF3775
(1715022789.315178) can0 18F0010B#4006000000410B4F
(1715022789.315927) can0 18F00010#007D7DF4107D007D
(1715022789.316554) can0 18FEF100#4300000400FF1FFF
(1715022789.317168) can0 18F00503#89FFFF897E7E0040
(1715022789.317936) can0 18FEF227#FFFFFFFFFFFF00FF
(1715022789.318687) can0 18FEF600#FF00FFFFFFFFFFFF
(1715022789.322694) can0 18FECA21#00FF000000000000
(1715022789.323302) can0 18FFA121#CFFFFFFFFFFFFFFF
(1715022789.323927) can0 18FEFC21#FF73F0FFFFFFFFFF
(1715022789.324695) can0 18FFA221#FFFFCCFFFFFFFFF0
(1715022789.325427) can0 18FFA321#F0CFF4FFFFFFFFFF
(1715022789.326065) can0 18FECA21#00FF000000000000
(1715022789.326805) can0 18FFA121#CFFFFFFFFFFFFFFF
(1715022789.327446) can0 18FEC1EE#53FAF20000000000
(1715022789.328180) can0 18FEE6EE#240D1605FF277D7D
(1715022789.328916) can0 18FECA0B#00FF000000000000
(1715022789.329554) can0 18FE6CEE#7A508000FFFF3775
(1715022789.330163) can0 18F0010B#4006000000410B4F
(1715022789.330908) can0 18F00010#007D7DF4107D007D
(1715022789.331537) can0 18F00503#89FFFF897E7E0040
(1715022789.332303) can0 18FEFC21#FF73F0FFFFFFFFFF
(1715022789.332908) can0 18FFA221#FFFFCCFFFFFFFFF0
(1715022789.333679) can0 18FFA321#F0CFF4FFFFFFFFFF
(1715022789.334302) can0 18FEC1EE#53FAF20000000000
(1715022789.335036) can0 18FECA27#00FF000000000000
(1715022789.335803) can0 18FEF227#FFFFFFFFFFFF00FF
(1715022789.336447) can0 18FECA27#00FF000000000000
(1715022789.337196) can0 18FEEE00#83FF2C2EFFFFFFFF
(1715022789.337822) can0 18FEF500#FFFFFFFF24FFFFFF
(1715022789.338534) can0 18FECA00#00FF000000000000
(1715022789.339314) can0 18F00400#F17DFFE933FFF0FF
(1715022789.339932) can0 18FEF100#4300000400FF1FFF
(1715022789.340680) can0 18FEF600#FF00FFFFFFFFFFFF
(1715022789.341283) can0 18FEEE00#83FF2C2EFFFFFFFF
(1715022789.342041) can0 18FEF500#FFFFFFFF24FFFFFF
(1715022789.342651) can0 18FECA00#00FF000000000000
(1715022789.343402) can0 18FEAE30#FFFF7171FFFFFFFF
(1715022789.344032) can0 18F00400#F17DFFE933FFF0FF
(1715022789.344777) can0 18F00010#007D7DF4107D007D
(1715022789.345405) can0 18FEF100#4300000400FF1FFF
(1715022789.346147) can0 18F00503#89FFFF897E7E0040
(1715022789.346813) can0 18FEF227#FFFFFFFFFFFF00FF
(1715022789.347536) can0 18FEF600#FF00FFFFFFFFFFFF
(1715022789.348304) can0 18FEEE00#83FF2C2EFFFFFFFF
(1715022789.348914) can0 18FEF500#FFFFFFFF24FFFFFF
(1715022789.349658) can0 18FECA00#00FF000000000000
(1715022789.350305) can0 18FECA21#00FF000000000000
(1715022789.351054) can0 18FFA121#CFFFFFFFFFFFFFFF
(1715022789.351658) can0 18FEFC21#FF73F0FFFFFFFFFF
(1715022789.352429) can0 18FFA221#FFFFCCFFFFFFFFF0
(1715022789.353035) can0 18FFA321#F0CFF4FFFFFFFFFF
(1715022789.353778) can0 18FECA21#00FF000000000000
(1715022789.354434) can0 18FFA121#CFFFFFFFFFFFFFFF
(1715022789.355187) can0 18FECA0B#00FF000000000000
(1715022789.355908) can0 18FEE6EE#240D1605FF277D7D
(1715022789.356570) can0 18FE6CEE#7A508000FFFF3775
(1715022789.357303) can0 18FEAE30#FFFF7171FFFFFFFF
(1715022789.357907) can0 18FEAE30#FFFF7171FFFFFFFF
(1715022789.358688) can0 18FECA27#00FF000000000000
(1715022789.359287) can0 18F00400#F17DFFE933FFF0FF
(1715022789.360031) can0 18F00010#007D7DF4107D007D
(1715022789.360680) can0 18FEF100#4300000400FF1FFF
(1715022789.361428) can0 18F00503#89FFFF897E7E0040
(1715022789.362053) can0 18FEFC21#FF73F0FFFFFFFFFF
(1715022789.362803) can0 18FEF227#FFFFFFFFFFFF00FF
(1715022789.363551) can0 18FFA221#FFFFCCFFFFFFFFF0
(1715022789.364153) can0 18FFA321#F0CFF4FFFFFFFFFF
(1715022789.364927) can0 18FEF600#FF00FFFFFFFFFFFF
(1715022789.365920) can0 18FEC1EE#53FAF20000000000
(1715022789.366681) can0 18FEE6EE#240D1605FF277D7D
(1715022789.367320) can0 18FE6CEE#7A508000FFFF3775
(1715022789.368053) can0 18FEC1EE#53FAF20000000000
(1715022789.368685) can0 18DEEE17#FCFFFFFFFFFFFFFF
(1715022789.369303) can0 18FEE6EE#240D1605FF277D7D
(1715022789.369913) can0 18F0010B#4006000000410B4F
(1715022789.370679) can0 18FECA0B#00FF000000000000
(1715022789.371285) can0 18F0010B#4006000000410B4F
(1715022789.372054) can0 18FECA0B#00FF000000000000
(1715022789.373163) can0 18FE6CEE#7A508000FFFF3775
(1715022789.373929) can0 18F0010B#4006000000410B4F
(1715022789.374549) can0 18F00010#007D7DF4107D007D
(1715022789.375303) can0 18F00503#89FFFF897E7E0040
(1715022789.375919) can0 18FEC1EE#53FAF20000000000
(1715022789.376654) can0 18FECA0B#00FF000000000000
(1715022789.377320) can0 18FEE6EE#240D1605FF277D7D
(1715022789.378054) can0 18FEEE00#83FF2C2EFFFFFFFF
(1715022789.378652) can0 18FEF500#FFFFFFFF24FFFFFF
(1715022789.379429) can0 18FEAE30#FFFF7171FFFFFFFF
(1715022789.380038) can0 18FECA00#00FF000000000000
(1715022789.380804) can0 18FEAE30#FFFF7171FFFFFFFF
(1715022789.381429) can0 18F00400#F17DFFE933FFF0FF
(1715022789.382154) can0 18FEF100#4300000400FF1FFF
(1715022789.382911) can0 18FEF600#FF00FFFFFFFFFFFF
(1715022789.383548) can0 18FEEE00#83FF2C2EFFFFFFFF
(1715022789.384319) can0 18FECA27#00FF000000000000
(1715022789.384930) can0 18FEF227#FFFFFFFFFFFF00FF
(1715022789.385658) can0 18FECA27#00FF000000000000
(1715022789.386425) can0 18FECA21#00FF000000000000
(1715022789.387057) can0 18FFA121#CFFFFFFFFFFFFFFF
(1715022789.387802) can0 18FEFC21#FF73F0FFFFFFFFFF
(1715022789.388426) can0 18FFA221#FFFFCCFFFFFFFFF0
(1715022789.389061) can0 18FE6CEE#7A508000FFFF3775
(1715022789.389805) can0 18F0010B#4006000000410B4F
(1715022789.390430) can0 18F00010#007D7DF4107D007D
(1715022789.391164) can0 18F00503#89FFFF897E7E0040
(1715022789.391929) can0 18FEF227#FFFFFFFFFFFF00FF
(1715022789.392552) can0 18FEAE30#FFFF7171FFFFFFFF
(1715022789.393302) can0 18FEC1EE#53FAF20000000000
(1715022789.393937) can0 18FECA0B#00FF000000000000
(1715022789.394685) can0 18FECA27#00FF000000000000
(1715022789.395428) can0 18FEE6EE#240D1605FF277D7D
(1715022789.398165) can0 18FEF500#FFFFFFFF24FFFFFF
(1715022789.398931) can0 18FFA321#F0CFF4FFFFFFFFFF
(1715022789.399655) can0 18FECA00#00FF000000000000
(1715022789.400426) can0 18FECA21#00FF000000000000
(1715022789.401057) can0 18F00400#F17DFFE933FFF0FF
(1715022789.401781) can0 18FFA121#CFFFFFFFFFFFFFFF
(1715022789.402551) can0 18FEF100#4300000400FF1FFF
(1715022789.403303) can0 18FEFC21#FF73F0FFFFFFFFFF
(1715022789.403907) can0 18FEF600#FF00FFFFFFFFFFFF
(1715022789.404682) can0 18FFA221#FFFFCCFFFFFFFFF0
(1715022789.405427) can0 18FEEE00#83FF2C2EFFFFFFFF
(1715022789.406031) can0 18FFA321#F0CFF4FFFFFFFFFF
(1715022789.408055) can0 18FE6CEE#7A508000FFFF3775
(1715022789.408662) can0 18F0010B#4006000000410B4F
(1715022789.409428) can0 18F00010#007D7DF4107D007D
(1715022789.410175) can0 18F00503#89FFFF897E7E0040
(1715022789.410927) can0 18FEF227#FFFFFFFFFFFF00FF
(1715022789.411571) can0 18FEAE30#FFFF7171FFFFFFFF
(1715022789.412278) can0 18FEC1EE#53FAF20000000000
(1715022789.413052) can0 18FECA0B#00FF000000000000
(1715022789.413679) can0 18FECA27#00FF000000000000
(1715022789.414406) can0 18FEE6EE#240D1605FF277D7D
(1715022789.415058) can0 18FEF500#FFFFFFFF24FFFFFF
(1715022789.415929) can0 18FECA00#00FF000000000000
(1715022789.416531) can0 18F00400#F17DFFE933FFF0FF
(1715022789.417303) can0 18FEF100#4300000400FF1FFF
(1715022789.422283) can0 18FECA21#00FF000000000000
(1715022789.422920) can0 18FFA121#CFFFFFFFFFFFFFFF
(1715022789.423653) can0 18FEFC21#FF73F0FFFFFFFFFF
(1715022789.424430) can0 18FFA221#FFFFCCFFFFFFFFF0
(1715022789.425182) can0 18FFA321#F0CFF4FFFFFFFFFF
(1715022789.425821) can0 18FECA21#00FF000000000000
(1715022789.426550) can0 18FFA121#CFFFFFFFFFFFFFFF
(1715022789.427305) can0 18FE6CEE#7A508000FFFF3775
(1715022789.427940) can0 18F0010B#4006000000410B4F
(1715022789.428679) can0 18F00010#007D7DF4107D007D
(1715022789.429416) can0 18F00503#89FFFF897E7E0040
(1715022789.430036) can0 18FEFC21#FF73F0FFFFFFFFFF
(1715022789.430826) can0 18FEF227#FFFFFFFFFFFF00FF
(1715022789.431555) can0 18FFA221#FFFFCCFFFFFFFFF0
(1715022789.432304) can0 18FFA321#F0CFF4FFFFFFFFFF
(1715022789.433052) can0 18FEF600#FF00FFFFFFFFFFFF
(1715022789.433664) can0 18FEEE00#83FF2C2EFFFFFFFF
(1715022789.434420) can0 18FEF500#FFFFFFFF24FFFFFF
(1715022789.435177) can0 18FECA00#00FF000000000000
(1715022789.435931) can0 18F00400#F17DFFE933FFF0FF
(1715022789.436572) can0 18FEF100#4300000400FF1FFF
(1715022789.437279) can0 18FEF600#FF00FFFFFFFFFFFF
(1715022789.437948) can0 18FEEE00#83FF2C2EFFFFFFFF
(1715022789.438678) can0 18FECA27#00FF000000000000
(1715022789.439406) can0 18FECA21#00FF000000000000
(1715022789.440056) can0 18FFA121#CFFFFFFFFFFFFFFF
(1715022789.440803) can0 18FEC1EE#53FAF20000000000
(1715022789.441446) can0 18FEE6EE#240D1605FF277D7D
(1715022789.442179) can0 18FEAE30#FFFF7171FFFFFFFF
(1715022789.449428) can0 18FECA0B#00FF000000000000
(1715022789.450916) can0 18FE6CEE#7A508000FFFF3775
(1715022789.451560) can0 18F0010B#4006000000410B4F
(1715022789.452302) can0 18F00010#007D7DF4107D007D
(1715022789.453043) can0 18F00503#89FFFF897E7E0040
(1715022789.453679) can0 18FEFC21#FF73F0FFFFFFFFFF
(1715022789.454412) can0 18FEF227#FFFFFFFFFFFF00FF
(1715022789.455155) can0 18FFA221#FFFFCCFFFFFFFFF0
(1715022789.455930) can0 18FFA321#F0CFF4FFFFFFFFFF
(1715022789.456572) can0 18FEAE30#FFFF7171FFFFFFFF
(1715022789.457280) can0 18FEC1EE#53FAF20000000000
(1715022789.458054) can0 18FECA0B#00FF000000000000
(1715022789.458804) can0 18FECA21#00FF000000000000
(1715022789.461904) can0 18FECA27#00FF000000000000
(1715022789.462921) can0 18FFA121#CFFFFFFFFFFFFFFF
(1715022789.468430) can0 18F0010B#4006000000410B4F
(1715022789.469194) can0 18F00010#007D7DF4107D007D
(1715022789.469929) can0 18F00503#89FFFF897E7E0040
(1715022789.470530) can0 18FEFC21#FF73F0FFFFFFFFFF
(1715022789.471320) can0 18FEF227#FFFFFFFFFFFF00FF
(1715022789.471937) can0 18FFA221#FFFFCCFFFFFFFFF0
(1715022789.472697) can0 18FFA321#F0CFF4FFFFFFFFFF
(1715022789.473429) can0 18FEAE30#FFFF7171FFFFFFFF
(1715022789.474179) can0 18FECA0B#00FF000000000000
(1715022789.474927) can0 18FECA21#00FF000000000000
(1715022789.475575) can0 18FECA27#00FF000000000000
(1715022789.476303) can0 18FFA121#CFFFFFFFFFFFFFFF
(1715022789.477052) can0 18FEE6EE#240D1605FF277D7D
(1715022789.477682) can0 18FE6CEE#7A508000FFFF3775
(1715022789.478429) can0 18FEC1EE#53FAF20000000000
(1715022789.479060) can0 18FEE6EE#240D1605FF277D7D
(1715022789.479805) can0 18FEF500#FFFFFFFF24FFFFFF
(1715022789.480554) can0 18FECA00#00FF000000000000
(1715022789.481198) can0 18F00400#F17DFFE933FFF0FF
(1715022789.481917) can0 18FEF100#4300000400FF1FFF
(1715022789.482680) can0 18FEF600#FF00FFFFFFFFFFFF
(1715022789.483296) can0 18FEEE00#83FF2C2EFFFFFFFF
(1715022789.486439) can0 18FE6CEE#7A508000FFFF3775
(1715022789.487164) can0 18F0010B#4006000000410B4F
(1715022789.487944) can0 18F00010#007D7DF4107D007D
(1715022789.488679) can0 18F00503#89FFFF897E7E0040
(1715022789.489287) can0 18FEFC21#FF73F0FFFFFFFFFF
(1715022789.490056) can0 18FEF227#FFFFFFFFFFFF00FF
(1715022789.490804) can0 18FFA221#FFFFCCFFFFFFFFF0
(1715022789.491437) can0 18FFA321#F0CFF4FFFFFFFFFF
(1715022789.492174) can0 18FEAE30#FFFF7171FFFFFFFF
(1715022789.492928) can0 18FEC1EE#53FAF20000000000
(1715022789.493678) can0 18FECA0B#00FF000000000000
(1715022789.494288) can0 18FECA21#00FF000000000000
(1715022789.499310) can0 18FEF500#FFFFFFFF24FFFFFF
(1715022789.500039) can0 18FECA00#00FF000000000000
(1715022789.500805) can0 18F00400#F17DFFE933FFF0FF
(1715022789.501542) can0 18FEF100#4300000400FF1FFF
(1715022789.502152) can0 18FEF600#FF00FFFFFFFFFFFF
(1715022789.502928) can0 18FEEE00#83FF2C2EFFFFFFFF
(1715022789.503668) can0 18FEF500#FFFFFFFF24FFFFFF
(1715022789.504407) can0 18FECA00#00FF000000000000
(1715022789.505058) can0 18F00400#F17DFFE933FFF0FF
(1715022789.505806) can0 18FEF100#4300000400FF1FFF
(1715022789.506536) can0 18FEF600#FF00FFFFFFFFFFFF
(1715022789.507184) can0 18FEEE00#83FF2C2EFFFFFFFF
(1715022789.507934) can0 18FFA121#CFFFFFFFFFFFFFFF
(1715022789.508664) can0 18F0010B#4006000000410B4F
(1715022789.509302) can0 18F00010#007D7DF4107D007D
(1715022789.510055) can0 18F00503#89FFFF897E7E0040
(1715022789.510652) can0 18FEFC21#FF73F0FFFFFFFFFF
(1715022789.511447) can0 18FFA221#FFFFCCFFFFFFFFF0
(1715022789.512054) can0 18FEE6EE#240D1605FF277D7D
(1715022789.512803) can0 18FE6CEE#7A508000FFFF3775
(1715022789.513556) can0 18FEC1EE#53FAF20000000000
(1715022789.514187) can0 18FEE6EE#240D1605FF277D7D
(1715022789.514935) can0 18FECA27#00FF000000000000
(1715022789.515680) can0 18FEF227#FFFFFFFFFFFF00FF
(1715022789.516426) can0 18FECA27#00FF000000000000
(1715022789.517432) can0 18FECA0B#00FF000000000000
(1715022789.518405) can0 18FEF500#FFFFFFFF24FFFFFF
(1715022789.519179) can0 18FECA00#00FF000000000000
(1715022789.519823) can0 18F00400#F17DFFE933FFF0FF
(1715022789.520535) can0 18FEF100#4300000400FF1FFF
(1715022789.521302) can0 18FEF600#FF00FFFFFFFFFFFF
(1715022789.522053) can0 18FEEE00#83FF2C2EFFFFFFFF
(1715022789.522661) can0 18FEF500#FFFFFFFF24FFFFFF
(1715022789.523428) can0 18FECA00#00FF000000000000
(1715022789.524180) can0 18FEAE30#FFFF7171FFFFFFFF
(1715022789.524806) can0 18F00400#F17DFFE933FFF0FF
(1715022789.525552) can0 18FE6CEE#7A508000FFFF3775
(1715022789.526178) can0 18F0010B#4006000000410B4F
(1715022789.526947) can0 18F00010#007D7DF4107D007D
(1715022789.527681) can0 18FEF100#4300000400FF1FFF
(1715022789.528429) can0 18F00503#89FFFF897E7E0040
(1715022789.529048) can0 18FFA321#F0CFF4FFFFFFFFFF
(1715022789.529794) can0 18FECA21#00FF000000000000
(1715022789.530655) can0 18F00010#007D7DF4107D007D
(1715022789.531290) can0 18F00503#89FFFF897E7E0040
(1715022789.533556) can0 18FECA0B#00FF000000000000
(1715022789.534307) can0 18F0010B#4006000000410B4F
(1715022789.534929) can0 18FECA0B#00FF000000000000
(1715022789.536434) can0 18FEF227#FFFFFFFFFFFF00FF
(1715022789.537145) can0 18FECA27#00FF000000000000
(1715022789.537929) can0 18FEF227#FFFFFFFFFFFF00FF
(1715022789.538679) can0 18FECA27#00FF000000000000
(1715022789.539337) can0 18FEF600#FF00FFFFFFFFFFFF
(1715022789.540080) can0 18FEEE00#83FF2C2EFFFFFFFF
(1715022789.540801) can0 18FEF500#FFFFFFFF24FFFFFF
(1715022789.541454) can0 18FECA00#00FF000000000000
(1715022789.542164) can0 18F00400#F17DFFE933FFF0FF
(1715022789.542914) can0 18FEF100#4300000400FF1FFF
(1715022789.543549) can0 18FEF600#FF00FFFFFFFFFFFF
(1715022789.544289) can0 18FEEE00#83FF2C2EFFFFFFFF
(1715022789.544924) can0 18FEF500#FFFFFFFF24FFFFFF
(1715022789.545657) can0 18FFA121#CFFFFFFFFFFFFFFF
(1715022789.546295) can0 18FEFC21#FF73F0FFFFFFFFFF
(1715022789.547095) can0 18FFA221#FFFFCCFFFFFFFFF0
(1715022789.547806) can0 18FFA321#F0CFF4FFFFFFFFFF
(1715022789.548553) can0 18FECA21#00FF000000000000
(1715022789.549305) can0 18FFA121#CFFFFFFFFFFFFFFF
(1715022789.550054) can0 18FEFC21#FF73F0FFFFFFFFFF
(1715022789.550653) can0 18FEAE30#FFFF7171FFFFFFFF
(1715022789.551434) can0 18FEC1EE#53FAF20000000000
(1715022789.552049) can0 18FEAE30#FFFF7171FFFFFFFF
(1715022789.552801) can0 18FEE6EE#240D1605FF277D7D
(1715022789.553435) can0 18FE6CEE#7A508000FFFF3775
(1715022789.554061) can0 18F0010B#4006000000410B4F
(1715022789.554779) can0 18F00010#007D7DF4107D007D
(1715022789.560417) can0 18FFA221#FFFFCCFFFFFFFFF0
(1715022789.561160) can0 18FFA321#F0CFF4FFFFFFFFFF
(1715022789.561931) can0 18FECA21#00FF000000000000
(1715022789.562566) can0 18FFA121#CFFFFFFFFFFFFFFF
(1715022789.563280) can0 18FEFC21#FF73F0FFFFFFFFFF
(1715022789.564055) can0 18FFA221#FFFFCCFFFFFFFFF0
(1715022789.564661) can0 18FFA321#F0CFF4FFFFFFFFFF
(1715022789.565445) can0 18FECA21#00FF000000000000
(1715022789.566173) can0 18FFA121#CFFFFFFFFFFFFFFF
(1715022789.566950) can0 18FEF227#FFFFFFFFFFFF00FF
(1715022789.567680) can0 18FECA27#00FF000000000000
(1715022789.568429) can0 18FECA00#00FF000000000000
(1715022789.569043) can0 18F00400#F17DFFE933FFF0FF
(1715022789.569804) can0 18FEF100#4300000400FF1FFF
(1715022789.570546) can0 18FEF600#FF00FFFFFFFFFFFF
(1715022789.571307) can0 18F00010#007D7DF4107D007D
(1715022789.572067) can0 18FECA0B#00FF000000000000
(1715022789.572662) can0 18F0010B#4006000000410B4F
(1715022789.573430) can0 18F00503#89FFFF897E7E0040
(1715022789.574038) can0 18F00503#89FFFF897E7E0040
(1715022789.574805) can0 18FEC1EE#53FAF20000000000
(1715022789.575555) can0 18FEE6EE#240D1605FF277D7D
(1715022789.576191) can0 18FE6CEE#7A508000FFFF3775
(1715022789.576928) can0 18FEC1EE#53FAF20000000000
(1715022789.577563) can0 18FEAE30#FFFF7171FFFFFFFF
(1715022789.578310) can0 18FEAE30#FFFF7171FFFFFFFF
(1715022789.579058) can0 18FEFC21#FF73F0FFFFFFFFFF
(1715022789.579692) can0 18FFA221#FFFFCCFFFFFFFFF0
(1715022789.580428) can0 18FFA321#F0CFF4FFFFFFFFFF
(1715022789.581032) can0 18FECA21#00FF000000000000
(1715022789.581769) can0 18FFA121#CFFFFFFFFFFFFFFF
(1715022789.582547) can0 18FEF227#FFFFFFFFFFFF00FF
(1715022789.583287) can0 18FECA27#00FF000000000000
(1715022789.584057) can0 18F00010#007D7DF4107D007D
(1715022789.584735) can0 18F00503#89FFFF897E7E0040
(1715022789.585406) can0 18FEFC21#FF73F0FFFFFFFFFF
(1715022789.586178) can0 18FEF227#FFFFFFFFFFFF00FF
(1715022789.586929) can0 18FFA221#FFFFCCFFFFFFFFF0
(1715022789.587519) can0 18FFA321#F0CFF4FFFFFFFFFF
(1715022789.588302) can0 18FEAE30#FFFF7171FFFFFFFF
(1715022789.588937) can0 18FECA21#00FF000000000000
(1715022789.589659) can0 18FEEE00#83FF2C2EFFFFFFFF
(1715022789.590429) can0 18FEF500#FFFFFFFF24FFFFFF
(1715022789.591053) can0 18FECA00#00FF000000000000
(1715022789.591784) can0 18F00400#F17DFFE933FFF0FF
(1715022789.592553) can0 18FEF100#4300000400FF1FFF
(1715022789.593305) can0 18FECA0B#00FF000000000000
(1715022789.593909) can0 18FEE6EE#240D1605FF277D7D
(1715022789.594661) can0 18FE6CEE#7A508000FFFF3775
(1715022789.595304) can0 18FEC1EE#53FAF20000000000
(1715022789.596054) can0 18FEE6EE#240D1605FF277D7D
(1715022789.596673) can0 18FE6CEE#7A508000FFFF3775
(1715022789.597428) can0 18FEC1EE#53FAF20000000000
(1715022789.598033) can0 18FEE6EE#240D1605FF277D7D
(1715022789.598806) can0 18FECA27#00FF000000000000
(1715022789.599430) can0 18F0010B#4006000000410B4F
(1715022789.600159) can0 18FECA0B#00FF000000000000
(1715022789.600928) can0 18FE6CEE#7A508000FFFF3775
(1715022789.601680) can0 18F0010B#4006000000410B4F
(1715022789.602314) can0 18F00010#007D7DF4107D007D
(1715022789.603054) can0 18F00503#89FFFF897E7E0040
(1715022789.603687) can0 18FEF227#FFFFFFFFFFFF00FF
(1715022789.604433) can0 18FEAE30#FFFF7171FFFFFFFF
(1715022789.605181) can0 18FEC1EE#53FAF20000000000
(1715022789.605898) can0 18FECA0B#00FF000000000000
(1715022789.606549) can0 18FECA27#00FF000000000000
(1715022789.607319) can0 18FEF600#FF00FFFFFFFFFFFF
(1715022789.608034) can0 18FEEE00#83FF2C2EFFFFFFFF
(1715022789.608687) can0 18FEF500#FFFFFFFF24FFFFFF
(1715022789.609444) can0 18FECA00#00FF000000000000
(1715022789.610159) can0 18F00400#F17DFFE933FFF0FF
(1715022789.610931) can0 18FEF100#4300000400FF1FFF
(1715022789.611573) can0 18FEF600#FF00FFFFFFFFFFFF
(1715022789.613806) can0 18F0010B#4006000000410B4F
(1715022789.614535) can0 18F00010#007D7DF4107D007D
(1715022789.615181) can0 18F00503#89FFFF897E7E0040
(1715022789.615949) can0 18FEF227#FFFFFFFFFFFF00FF
(1715022789.616681) can0 18FEAE30#FFFF7171FFFFFFFF
(1715022789.617427) can0 18FECA0B#00FF000000000000
(1715022789.618063) can0 18FECA27#00FF000000000000
(1715022789.618805) can0 18FFA121#CFFFFFFFFFFFFFFF
(1715022789.619555) can0 18FEFC21#FF73F0FFFFFFFFFF
(1715022789.620303) can0 18FFA221#FFFFCCFFFFFFFFF0
(1715022789.621054) can0 18FFA321#F0CFF4FFFFFFFFFF
(1715022789.621667) can0 18FECA21#00FF000000000000
(1715022789.622410) can0 18FFA121#CFFFFFFFFFFFFFFF
(1715022789.623171) can0 18FEFC21#FF73F0FFFFFFFFFF
(1715022789.623804) can0 18FFA221#FFFFCCFFFFFFFFF0
(1715022789.624530) can0 18FFA321#F0CFF4FFFFFFFFFF
(1715022789.625305) can0 18FEE6EE#240D1605FF277D7D
(1715022789.625900) can0 18FE6CEE#7A508000FFFF3775
(1715022789.628184) can0 18F0010B#4006000000410B4F
(1715022789.628909) can0 18F00010#007D7DF4107D007D
(1715022789.629570) can0 18F00503#89FFFF897E7E0040
(1715022789.630304) can0 18FEF227#FFFFFFFFFFFF00FF
(1715022789.631035) can0 18FEAE30#FFFF7171FFFFFFFF
(1715022789.631697) can0 18FECA0B#00FF000000000000
(1715022789.632427) can0 18FECA27#00FF000000000000
(1715022789.633159) can0 18FEEE00#83FF2C2EFFFFFFFF
(1715022789.633812) can0 18FEF500#FFFFFFFF24FFFFFF
(1715022789.634533) can0 18FECA00#00FF000000000000
(1715022789.635307) can0 18F00400#F17DFFE933FFF0FF
(1715022789.635925) can0 18FEF100#4300000400FF1FFF
(1715022789.636927) can0 18FECA21#00FF000000000000
(1715022789.637681) can0 18FFA121#CFFFFFFFFFFFFFFF
(1715022789.638428) can0 18FEFC21#FF73F0FFFFFFFFFF
(1715022789.639041) can0 18FFA221#FFFFCCFFFFFFFFF0
(1715022789.639807) can0 18FFA321#F0CFF4FFFFFFFFFF
(1715022789.640553) can0 18FECA21#00FF000000000000
(1715022789.641167) can0 18FFA121#CFFFFFFFFFFFFFFF
(1715022789.642559) can0 18FEC1EE#53FAF20000000000
(1715022789.643303) can0 18FEE6EE#240D1605FF277D7D
(1715022789.643946) can0 18FE6CEE#7A508000FFFF3775
(1715022789.644680) can0 18FEC1EE#53FAF20000000000
(1715022789.645287) can0 18FEE6EE#240D1605FF277D7D
(1715022789.646067) can0 18FEF600#FF00FFFFFFFFFFFF
(1715022789.646803) can0 18FEEE00#83FF2C2EFFFFFFFF
(1715022789.647530) can0 18FEF500#FFFFFFFF24FFFFFF
(1715022789.648301) can0 18FECA00#00FF000000000000
(1715022789.648918) can0 18F00400#F17DFFE933FFF0FF
(1715022789.649657) can0 18FEF100#4300000400FF1FFF
(1715022789.650427) can0 18FEF600#FF00FFFFFFFFFFFF
(1715022789.651073) can0 18FE6CEE#7A508000FFFF3775
(1715022789.651782) can0 18F0010B#4006000000410B4F
(1715022789.654808) can0 18FEF227#FFFFFFFFFFFF00FF
(1715022789.655434) can0 18FECA27#00FF000000000000
(1715022789.656802) can0 18F00010#007D7DF4107D007D
(1715022789.658805) can0 18FEAE30#FFFF7171FFFFFFFF
(1715022789.660431) can0 18F00010#007D7DF4107D007D
(1715022789.661177) can0 18FEF227#FFFFFFFFFFFF00FF
(1715022789.661917) can0 18FEAE30#FFFF7171FFFFFFFF
(1715022789.662532) can0 18FECA27#00FF000000000000
(1715022789.663280) can0 18F00503#89FFFF897E7E0040
(1715022789.663910) can0 18F00503#89FFFF897E7E0040
(1715022789.664682) can0 18FEFC21#FF73F0FFFFFFFFFF
(1715022789.665419) can0 18FFA221#FFFFCCFFFFFFFFF0
(1715022789.666044) can0 18FFA321#F0CFF4FFFFFFFFFF
(1715022789.666802) can0 18FECA21#00FF000000000000
(1715022789.667534) can0 18FFA121#CFFFFFFFFFFFFFFF
(1715022789.668344) can0 18FEFC21#FF73F0FFFFFFFFFF
(1715022789.668944) can0 18FFA221#FFFFCCFFFFFFFFF0
(1715022789.669656) can0 18FFA321#F0CFF4FFFFFFFFFF
(1715022789.670429) can0 18FECA0B#00FF000000000000
(1715022789.671072) can0 18F0010B#4006000000410B4F
(1715022789.671781) can0 18FECA0B#00FF000000000000
(1715022789.672432) can0 18FEEE00#83FF2C2EFFFFFFFF
(1715022789.673178) can0 18FEF500#FFFFFFFF24FFFFFF
(1715022789.673907) can0 18FEC1EE#53FAF20000000000
(1715022789.675432) can0 18F0010B#4006000000410B4F
(1715022789.676033) can0 18F00010#007D7DF4107D007D
(1715022789.676804) can0 18F00503#89FFFF897E7E0040
(1715022789.677444) can0 18FEF227#FFFFFFFFFFFF00FF
(1715022789.678162) can0 18FEAE30#FFFF7171FFFFFFFF
(1715022789.678929) can0 18FECA0B#00FF000000000000
(1715022789.679555) can0 18FECA27#00FF000000000000
(1715022789.680929) can0 18FECA21#00FF000000000000
(1715022789.681573) can0 18FFA121#CFFFFFFFFFFFFFFF
(1715022789.682281) can0 18FEFC21#FF73F0FFFFFFFFFF
(1715022789.682918) can0 18FFA221#FFFFCCFFFFFFFFF0
(1715022789.683683) can0 18FFA321#F0CFF4FFFFFFFFFF
(1715022789.684407) can0 18FECA21#00FF000000000000
(1715022789.685179) can0 18FFA121#CFFFFFFFFFFFFFFF
(1715022789.685929) can0 18FECA00#00FF000000000000
(1715022789.686544) can0 18F00400#F17DFFE933FFF0FF
(1715022789.687304) can0 18FEF100#4300000400FF1FFF
(1715022789.687913) can0 18FEF600#FF00FFFFFFFFFFFF
(1715022789.688657) can0 18FEEE00#83FF2C2EFFFFFFFF
(1715022789.689463) can0 18FEF500#FFFFFFFF24FFFFFF
(1715022789.690039) can0 18FECA00#00FF000000000000
(1715022789.690782) can0 18F00400#F17DFFE933FFF0FF
(1715022789.691553) can0 18FEF100#4300000400FF1FFF
(1715022789.692303) can0 18FEE6EE#240D1605FF277D7D
(1715022789.692910) can0 18FE6CEE#7A508000FFFF3775
(1715022789.693679) can0 18FEC1EE#53FAF20000000000
(1715022789.694289) can0 18FEE6EE#240D1605FF277D7D
(1715022789.695035) can0 18FE6CEE#7A508000FFFF3775
(1715022789.695662) can0 18FEC1EE#53FAF20000000000
(1715022789.696804) can0 18F0010B#4006000000410B4F
(1715022789.697415) can0 18F00010#007D7DF4107D007D
(1715022789.698198) can0 18F00503#89FFFF897E7E0040
(1715022789.698930) can0 18FEFC21#FF73F0FFFFFFFFFF
(1715022789.699680) can0 18FEF227#FFFFFFFFFFFF00FF
(1715022789.700427) can0 18FFA221#FFFFCCFFFFFFFFF0
(1715022789.701050) can0 18FFA321#F0CFF4FFFFFFFFFF
(1715022789.701794) can0 18FEAE30#FFFF7171FFFFFFFF
(1715022789.702519) can0 18FECA0B#00FF000000000000
(1715022789.703284) can0 18FECA21#00FF000000000000
(1715022789.703898) can0 18FECA27#00FF000000000000
(1715022789.704695) can0 18FFA121#CFFFFFFFFFFFFFFF
(1715022789.706668) can0 18FEF600#FF00FFFFFFFFFFFF
(1715022789.707313) can0 18FEEE00#83FF2C2EFFFFFFFF
(1715022789.708074) can0 18FEF500#FFFFFFFF24FFFFFF
(1715022789.708804) can0 18FECA00#00FF000000000000
(1715022789.709448) can0 18F00400#F17DFFE933FFF0FF
(1715022789.710180) can0 18FEF100#4300000400FF1FFF
(1715022789.710929) can0 18FEF600#FF00FFFFFFFFFFFF
(1715022789.711548) can0 18FEEE00#83FF2C2EFFFFFFFF
(1715022789.712305) can0 18FEF500#FFFFFFFF24FFFFFF
(1715022789.713054) can0 18FECA00#00FF000000000000
(1715022789.713655) can0 18F00400#F17DFFE933FFF0FF
(1715022789.714428) can0 18FEF100#4300000400FF1FFF
(1715022789.715049) can0 18F0010B#4006000000410B4F
(1715022789.715783) can0 18F00010#007D7DF4107D007D
(1715022789.716435) can0 18F00503#89FFFF897E7E0040
(1715022789.717164) can0 18FEFC21#FF73F0FFFFFFFFFF
(1715022789.717908) can0 18FEF227#FFFFFFFFFFFF00FF
(1715022789.718542) can0 18FEE6EE#240D1605FF277D7D
(1715022789.721058) can0 18FECA27#00FF000000000000
(1715022789.723933) can0 18FE6CEE#7A508000FFFF3775
(1715022789.724567) can0 18FEC1EE#53FAF20000000000
(1715022789.725169) can0 18FEE6EE#240D1605FF277D7D
(1715022789.725930) can0 18FE6CEE#7A508000FFFF3775
(1715022789.726547) can0 18FEC1EE#53FAF20000000000
(1715022789.727304) can0 18FEE6EE#240D1605FF277D7D
(1715022789.728054) can0 18FEAE30#FFFF7171FFFFFFFF
(1715022789.728666) can0 18FEF600#FF00FFFFFFFFFFFF
(1715022789.729428) can0 18FEEE00#83FF2C2EFFFFFFFF
(1715022789.730177) can0 18FEF500#FFFFFFFF24FFFFFF
(1715022789.730930) can0 18FECA00#00FF000000000000
(1715022789.731530) can0 18F00400#F17DFFE933FFF0FF
(1715022789.732305) can0 18FFA221#FFFFCCFFFFFFFFF0
(1715022789.732937) can0 18FFA321#F0CFF4FFFFFFFFFF
(1715022789.733657) can0 18FECA21#00FF000000000000
(1715022789.734429) can0 18FECA0B#00FF000000000000
(1715022789.735180) can0 18FE6CEE#7A508000FFFF3775
(1715022789.735781) can0 18F0010B#4006000000410B4F
(1715022789.736555) can0 18F00010#007D7DF4107D007D
(1715022789.737304) can0 18F00503#89FFFF897E7E0040
(1715022789.737907) can0 18FEF227#FFFFFFFFFFFF00FF
(1715022789.738696) can0 18FEAE30#FFFF7171FFFFFFFF
(1715022789.739290) can0 18FEC1EE#53FAF20000000000
(1715022789.740018) can0 18FECA0B#00FF000000000000
(1715022789.740803) can0 18FECA27#00FF000000000000
(1715022789.741430) can0 18FEE6EE#240D1605FF277D7D
(1715022789.742219) can0 18FFA121#CFFFFFFFFFFFFFFF
(1715022789.742911) can0 18FEFC21#FF73F0FFFFFFFFFF
(1715022789.743546) can0 18FFA221#FFFFCCFFFFFFFFF0
(1715022789.744288) can0 18FFA321#F0CFF4FFFFFFFFFF
(1715022789.745054) can0 18FECA21#00FF000000000000
(1715022789.745675) can0 18FFA121#CFFFFFFFFFFFFFFF
(1715022789.747674) can0 18FEF100#4300000400FF1FFF
(1715022789.748430) can0 18FEF600#FF00FFFFFFFFFFFF
(1715022789.749179) can0 18FEEE00#83FF2C2EFFFFFFFF
(1715022789.749931) can0 18FEF500#FFFFFFFF24FFFFFF
(1715022789.750551) can0 18FECA00#00FF000000000000
(1715022789.751308) can0 18F00400#F17DFFE933FFF0FF
(1715022789.751981) can0 18FEF100#4300000400FF1FFF
(1715022789.752699) can0 18FEF600#FF00FFFFFFFFFFFF
(1715022789.753431) can0 18FEEE00#83FF2C2EFFFFFFFF
(1715022789.754201) can0 18FEF500#FFFFFFFF24FFFFFF
(1715022789.754931) can0 18FECA00#00FF000000000000
(1715022789.755555) can0 18F00400#F17DFFE933FFF0FF
(1715022789.756175) can0 18FE6CEE#7A508000FFFF3775
(1715022789.756935) can0 18F0010B#4006000000410B4F
(1715022789.757784) can0 18FEF100#4300000400FF1FFF
(1715022789.758430) can0 18FEF600#FF00FFFFFFFFFFFF
(1715022789.759165) can0 18FEEE00#83FF2C2EFFFFFFFF
(1715022789.759908) can0 18FEF500#FFFFFFFF24FFFFFF
(1715022789.760680) can0 18FECA00#00FF000000000000
(1715022789.761320) can0 18F00400#F17DFFE933FFF0FF
(1715022789.762038) can0 18FEF100#4300000400FF1FFF
(1715022789.762659) can0 18FEF600#FF00FFFFFFFFFFFF
(1715022789.763427) can0 18FEEE00#83FF2C2EFFFFFFFF
(1715022789.764159) can0 18FEF500#FFFFFFFF24FFFFFF
(1715022789.764927) can0 18FECA00#00FF000000000000
(1715022789.765538) can0 18FEAE30#FFFF7171FFFFFFFF
(1715022789.766285) can0 18FECA0B#00FF000000000000
(1715022789.767053) can0 18F00503#89FFFF897E7E0040
(1715022789.767664) can0 18FEF227#FFFFFFFFFFFF00FF
(1715022789.768418) can0 18FECA27#00FF000000000000
(1715022789.769038) can0 18FEFC21#FF73F0FFFFFFFFFF
(1715022789.769806) can0 18FFA221#FFFFCCFFFFFFFFF0
(1715022789.770403) can0 18FFA321#F0CFF4FFFFFFFFFF
(1715022789.771179) can0 18FECA21#00FF000000000000
(1715022789.771930) can0 18FFA121#CFFFFFFFFFFFFFFF
(1715022789.772539) can0 18FEC1EE#53FAF20000000000
(1715022789.773304) can0 18FEE6EE#240D1605FF277D7D
(1715022789.773948) can0 18F00400#F17DFFE933FFF0FF
(1715022789.774696) can0 18FE6CEE#7A508000FFFF3775
(1715022789.775295) can0 18F0010B#4006000000410B4F
(1715022789.776054) can0 18FEF100#4300000400FF1FFF
(1715022789.776661) can0 18F00503#89FFFF897E7E0040
(1715022789.777434) can0 18FEFC21#FF73F0FFFFFFFFFF
(1715022789.778180) can0 18FEF227#FFFFFFFFFFFF00FF
(1715022789.778930) can0 18FFA221#FFFFCCFFFFFFFFF0
(1715022789.779555) can0 18FFA321#F0CFF4FFFFFFFFFF
(1715022789.780303) can0 18FEF600#FF00FFFFFFFFFFFF
(1715022789.785417) can0 18FEC1EE#53FAF20000000000
(1715022789.786181) can0 18FECA27#00FF000000000000
(1715022789.786781) can0 18FEE6EE#240D1605FF277D7D
(1715022789.787556) can0 18FEAE30#FFFF7171FFFFFFFF
(1715022789.788910) can0 18FE6CEE#7A508000FFFF3775
(1715022789.789555) can0 18F00503#89FFFF897E7E0040
(1715022789.790304) can0 18FEF227#FFFFFFFFFFFF00FF
(1715022789.790945) can0 18FEAE30#FFFF7171FFFFFFFF
(1715022789.791681) can0 18FEC1EE#53FAF20000000000
(1715022789.792430) can0 18FECA27#00FF000000000000
(1715022789.793066) can0 18FEE6EE#240D1605FF277D7D
(1715022789.793805) can0 18FEEE00#83FF2C2EFFFFFFFF
(1715022789.794431) can0 18FEF500#FFFFFFFF24FFFFFF
(1715022789.795165) can0 18FECA00#00FF000000000000
(1715022789.795935) can0 18F00400#F17DFFE933FFF0FF
(1715022789.796680) can0 18FEF100#4300000400FF1FFF
(1715022789.797282) can0 18FEF600#FF00FFFFFFFFFFFF
(1715022789.798057) can0 18FEEE00#83FF2C2EFFFFFFFF
(1715022789.798804) can0 18F00010#007D7DF4107D007D
(1715022789.799407) can0 18F00010#007D7DF4107D007D
(1715022789.800179) can0 18F00010#007D7DF4107D007D
(1715022789.800929) can0 18FECA21#00FF000000000000
(1715022789.801525) can0 18FFA121#CFFFFFFFFFFFFFFF
(1715022789.802302) can0 18FEFC21#FF73F0FFFFFFFFFF
(1715022789.802940) can0 18FECA0B#00FF000000000000
(1715022789.803662) can0 18F0010B#4006000000410B4F
(1715022789.804410) can0 18FECA0B#00FF000000000000
(1715022789.809428) can0 18FFA221#FFFFCCFFFFFFFFF0
(1715022789.810165) can0 18FFA321#F0CFF4FFFFFFFFFF
(1715022789.810930) can0 18FECA21#00FF000000000000
(1715022789.811680) can0 18FFA121#CFFFFFFFFFFFFFFF
(1715022789.812290) can0 18FE6CEE#7A508000FFFF3775
(1715022789.813054) can0 18F0010B#4006000000410B4F
(1715022789.813804) can0 18F00010#007D7DF4107D007D
(1715022789.814435) can0 18F00503#89FFFF897E7E0040
(1715022789.815167) can0 18FEFC21#FF73F0FFFFFFFFFF
(1715022789.815930) can0 18FEF227#FFFFFFFFFFFF00FF
(1715022789.816681) can0 18FFA221#FFFFCCFFFFFFFFF0
(1715022789.817288) can0 18FFA321#F0CFF4FFFFFFFFFF
(1715022789.818055) can0 18FEAE30#FFFF7171FFFFFFFF
(1715022789.818662) can0 18FEC1EE#53FAF20000000000
(1715022789.819429) can0 18FEF500#FFFFFFFF24FFFFFF
(1715022789.825173) can0 18FECA27#00FF000000000000
(1715022789.828041) can0 18F00010#007D7DF4107D007D
(1715022789.828786) can0 18F00503#89FFFF897E7E0040
(1715022789.829427) can0 18FEF227#FFFFFFFFFFFF00FF
(1715022789.830179) can0 18FEAE30#FFFF7171FFFFFFFF
(1715022789.830911) can0 18FECA27#00FF000000000000
(1715022789.831542) can0 18FECA0B#00FF000000000000
(1715022789.832304) can0 18F0010B#4006000000410B4F
(1715022789.833057) can0 18FECA0B#00FF000000000000
(1715022789.833678) can0 18FECA00#00FF000000000000
(1715022789.834429) can0 18F00400#F17DFFE933FFF0FF
(1715022789.835037) can0 18FEF100#4300000400FF1FFF
(1715022789.835829) can0 18FEF600#FF00FFFFFFFFFFFF
(1715022789.836555) can0 18FEEE00#83FF2C2EFFFFFFFF
(1715022789.837305) can0 18FEF500#FFFFFFFF24FFFFFF
(1715022789.837922) can0 18FECA00#00FF000000000000
(1715022789.838681) can0 18F00400#F17DFFE933FFF0FF
(1715022789.839442) can0 18FEF100#4300000400FF1FFF
(1715022789.840060) can0 18FEF600#FF00FFFFFFFFFFFF
(1715022789.840929) can0 18FECA21#00FF000000000000
(1715022789.841556) can0 18FEE6EE#240D1605FF277D7D
(1715022789.842305) can0 18FE6CEE#7A508000FFFF3775
(1715022789.843432) can0 18F0010B#4006000000410B4F
(1715022789.844172) can0 18F00010#007D7DF4107D007D
(1715022789.844929) can0 18F00503#89FFFF897E7E0040
(1715022789.845562) can0 18FEF227#FFFFFFFFFFFF00FF
(1715022789.846315) can0 18FEAE30#FFFF7171FFFFFFFF
(1715022789.847055) can0 18FECA0B#00FF000000000000
(1715022789.847686) can0 18FECA27#00FF000000000000
(1715022789.849164) can0 18FEC1EE#53FAF20000000000
(1715022789.849915) can0 18FEE6EE#240D1605FF277D7D
(1715022789.850550) can0 18FE6CEE#7A508000FFFF3775
(1715022789.851304) can0 18FEC1EE#53FAF20000000000
(1715022789.851920) can0 18FEE6EE#240D1605FF277D7D
(1715022789.852684) can0 18FFA121#CFFFFFFFFFFFFFFF
(1715022789.853431) can0 18FEFC21#FF73F0FFFFFFFFFF
(1715022789.854063) can0 18FFA221#FFFFCCFFFFFFFFF0
(1715022789.854804) can0 18FFA321#F0CFF4FFFFFFFFFF
(1715022789.855557) can0 18FECA21#00FF000000000000
(1715022789.856305) can0 18FFA121#CFFFFFFFFFFFFFFF
(1715022789.857024) can0 18FEFC21#FF73F0FFFFFFFFFF
(1715022789.857805) can0 18FFA221#FFFFCCFFFFFFFFF0
(1715022789.858437) can0 18FFA321#F0CFF4FFFFFFFFFF
(1715022789.859159) can0 18FECA21#00FF000000000000
(1715022789.859815) can0 18FEEE00#83FF2C2EFFFFFFFF
(1715022789.860555) can0 18FEF500#FFFFFFFF24FFFFFF
(1715022789.861294) can0 18FECA00#00FF000000000000
(1715022789.861919) can0 18F00400#F17DFFE933FFF0FF
(1715022789.862663) can0 18FEF100#4300000400FF1FFF
(1715022789.863435) can0 18FEF600#FF00FFFFFFFFFFFF
(1715022789.864063) can0 18FEEE00#83FF2C2EFFFFFFFF
(1715022789.864810) can0 18FEF500#FFFFFFFF24FFFFFF
(1715022789.865554) can0 18FECA00#00FF000000000000
(1715022789.868947) can0 18FEAE30#FFFF7171FFFFFFFF
(1715022789.869817) can0 18F00400#F17DFFE933FFF0FF
(1715022789.870552) can0 18FE6CEE#7A508000FFFF3775
(1715022789.871305) can0 18FEF100#4300000400FF1FFF
(1715022789.871916) can0 18FEC1EE#53FAF20000000000
(1715022789.872700) can0 18FEF600#FF00FFFFFFFFFFFF
(1715022789.873431) can0 18FEE6EE#240D1605FF277D7D
(1715022789.874038) can0 18FEEE00#83FF2C2EFFFFFFFF
(1715022789.874804) can0 18FEF500#FFFFFFFF24FFFFFF
(1715022789.875558) can0 18FECA00#00FF000000000000
(1715022789.876301) can0 18FFA121#CFFFFFFFFFFFFFFF
(1715022789.877018) can0 18FEFC21#FF73F0FFFFFFFFFF
(1715022789.877668) can0 18FFA221#FFFFCCFFFFFFFFF0
(1715022789.878431) can0 18F00010#007D7DF4107D007D
(1715022789.879030) can0 18F0010B#4006000000410B4F
(1715022789.879777) can0 18FECA0B#00FF000000000000
(1715022789.880930) can0 18FEF227#FFFFFFFFFFFF00FF
(1715022789.881557) can0 18FECA27#00FF000000000000
(1715022789.882294) can0 18F00400#F17DFFE933FFF0FF
(1715022789.882941) can0 18FE6CEE#7A508000FFFF3775
(1715022789.883681) can0 18F0010B#4006000000410B4F
(1715022789.884429) can0 18F00010#007D7DF4107D007D
(1715022789.885039) can0 18FEF100#4300000400FF1FFF
(1715022789.885807) can0 18FEF227#FFFFFFFFFFFF00FF
(1715022789.886548) can0 18FEF600#FF00FFFFFFFFFFFF
(1715022789.887284) can0 18FEEE00#83FF2C2EFFFFFFFF
(1715022789.887951) can0 18FEF500#FFFFFFFF24FFFFFF
(1715022789.888681) can0 18FEAE30#FFFF7171FFFFFFFF
(1715022789.889301) can0 18F00503#89FFFF897E7E0040
(1715022789.890055) can0 18F00503#89FFFF897E7E0040
(1715022789.892190) can0 18FFA321#F0CFF4FFFFFFFFFF
(1715022789.892945) can0 18FECA21#00FF000000000000
(1715022789.893659) can0 18FFA121#CFFFFFFFFFFFFFFF
(1715022789.894430) can0 18FEFC21#FF73F0FFFFFFFFFF
(1715022789.895074) can0 18FFA221#FFFFCCFFFFFFFFF0
(1715022789.895777) can0 18FFA321#F0CFF4FFFFFFFFFF
(1715022789.896438) can0 18FECA21#00FF000000000000
(1715022789.897163) can0 18FFA121#CFFFFFFFFFFFFFFF
(1715022789.897910) can0 18FECA0B#00FF000000000000
(1715022789.898701) can0 18FECA27#00FF000000000000
(1715022789.899290) can0 18F0010B#4006000000410B4F
(1715022789.900034) can0 18F00010#007D7DF4107D007D
(1715022789.900804) can0 18F00503#89FFFF897E7E0040
(1715022789.901482) can0 18FEFC21#FF73F0FFFFFFFFFF
(1715022789.902181) can0 18FEF227#FFFFFFFFFFFF00FF
(1715022789.903007) can0 18FFA221#FFFFCCFFFFFFFFF0
(1715022789.903562) can0 18FFA321#F0CFF4FFFFFFFFFF
(1715022789.904306) can0 18FEAE30#FFFF7171FFFFFFFF
(1715022789.907307) can0 18FEC1EE#53FAF20000000000
(1715022789.907918) can0 18FECA00#00FF000000000000
(1715022789.908683) can0 18FEE6EE#240D1605FF277D7D
(1715022789.909300) can0 18F00400#F17DFFE933FFF0FF
(1715022789.910056) can0 18FE6CEE#7A508000FFFF3775
(1715022789.910806) can0 18FEF100#4300000400FF1FFF
(1715022789.911414) can0 18FEC1EE#53FAF20000000000
(1715022789.912181) can0 18FEF600#FF00FFFFFFFFFFFF
(1715022789.912931) can0 18FEE6EE#240D1605FF277D7D
(1715022789.913555) can0 18FEEE00#83FF2C2EFFFFFFFF
(1715022789.914305) can0 18FEF500#FFFFFFFF24FFFFFF
(1715022789.915059) can0 18FECA00#00FF000000000000
(1715022789.915696) can0 18FECA27#00FF000000000000
(1715022789.916429) can0 18F00400#F17DFFE933FFF0FF
(1715022789.917061) can0 18FE6CEE#7A508000FFFF3775
(1715022789.917807) can0 18F00010#007D7DF4107D007D
(1715022789.918414) can0 18FEF100#4300000400FF1FFF
(1715022789.919166) can0 18F00503#89FFFF897E7E0040
(1715022789.919931) can0 18FEF227#FFFFFFFFFFFF00FF
(1715022789.920556) can0 18FECA21#00FF000000000000
(1715022789.921308) can0 18FFA121#CFFFFFFFFFFFFFFF
(1715022789.921943) can0 18FEFC21#FF73F0FFFFFFFFFF
(1715022789.922653) can0 18FFA221#FFFFCCFFFFFFFFF0
(1715022789.923294) can0 18FFA321#F0CFF4FFFFFFFFFF
(1715022789.924057) can0 18FECA21#00FF000000000000
(1715022789.924674) can0 18FECA0B#00FF000000000000
(1715022789.925430) can0 18F0010B#4006000000410B4F
(1715022789.926050) can0 18FECA0B#00FF000000000000
(1715022789.926806) can0 18FEC1EE#53FAF20000000000
(1715022789.927415) can0 18FEE6EE#240D1605FF277D7D
(1715022789.928179) can0 18FECA27#00FF000000000000
(1715022789.928935) can0 18FE6CEE#7A508000FFFF3775
(1715022789.929683) can0 18F0010B#4006000000410B4F
(1715022789.930306) can0 18F00010#007D7DF4107D007D
(1715022789.930934) can0 18F00503#89FFFF897E7E0040
(1715022789.931683) can0 18FEF227#FFFFFFFFFFFF00FF
(1715022789.932307) can0 18FEC1EE#53FAF20000000000
(1715022789.933056) can0 18FECA0B#00FF000000000000
(1715022789.933687) can0 18FECA27#00FF000000000000
(1715022789.934430) can0 18FEE6EE#240D1605FF277D7D
(1715022789.935051) can0 18FEF600#FF00FFFFFFFFFFFF
(1715022789.935806) can0 18FEEE00#83FF2C2EFFFFFFFF
(1715022789.936439) can0 18FEF500#FFFFFFFF24FFFFFF
(1715022789.939542) can0 18FFA121#CFFFFFFFFFFFFFFF
(1715022789.940305) can0 18FEFC21#FF73F0FFFFFFFFFF
(1715022789.940925) can0 18FFA221#FFFFCCFFFFFFFFF0
(1715022789.941707) can0 18FFA321#F0CFF4FFFFFFFFFF
(1715022789.942293) can0 18FECA21#00FF000000000000
(1715022789.943038) can0 18FFA121#CFFFFFFFFFFFFFFF
(1715022789.943665) can0 18FECA00#00FF000000000000
(1715022789.944430) can0 18F00400#F17DFFE933FFF0FF
(1715022789.945039) can0 18FEF100#4300000400FF1FFF
(1715022789.945786) can0 18FEF600#FF00FFFFFFFFFFFF
(1715022789.946440) can0 18FEEE00#83FF2C2EFFFFFFFF
(1715022789.947165) can0 18FEF500#FFFFFFFF24FFFFFF
(1715022789.947916) can0 18FE6CEE#7A508000FFFF3775
(1715022789.948557) can0 18F0010B#4006000000410B4F
(1715022789.949305) can0 18F00010#007D7DF4107D007D
(1715022789.949911) can0 18F00503#89FFFF897E7E0040
(1715022789.950687) can0 18FEFC21#FF73F0FFFFFFFFFF
(1715022789.954934) can0 18FEF227#FFFFFFFFFFFF00FF
(1715022789.955557) can0 18FECA27#00FF000000000000
(1715022789.956144) can0 18FEAE30#FFFF7171FFFFFFFF
(1715022789.956929) can0 18FEAE30#FFFF7171FFFFFFFF
(1715022789.957556) can0 18FEAE30#FFFF7171FFFFFFFF
(1715022789.958323) can0 18FECA00#00FF000000000000
(1715022789.959056) can0 18F00400#F17DFFE933FFF0FF
(1715022789.959684) can0 18FEF100#4300000400FF1FFF
(1715022789.960431) can0 18FEF600#FF00FFFFFFFFFFFF
(1715022789.961050) can0 18FEEE00#83FF2C2EFFFFFFFF
(1715022789.961805) can0 18FEF500#FFFFFFFF24FFFFFF
(1715022789.962420) can0 18FECA00#00FF000000000000
(1715022789.963173) can0 18FECA0B#00FF000000000000
(1715022789.963931) can0 18F00400#F17DFFE933FFF0FF
(1715022789.964540) can0 18F0010B#4006000000410B4F
(1715022789.965304) can0 18F00010#007D7DF4107D007D
(1715022789.966056) can0 18FEF100#4300000400FF1FFF
(1715022789.966683) can0 18F00503#89FFFF897E7E0040
(1715022789.967307) can0 18FFA221#FFFFCCFFFFFFFFF0
(1715022789.968057) can0 18FFA321#F0CFF4FFFFFFFFFF
(1715022789.968681) can0 18ECFF17#20120003FFCAFE00
(1715022789.969307) can0 18FECA21#00FF000000000000
(1715022789.969911) can0 18FFA121#CFFFFFFFFFFFFFFF
(1715022789.970682) can0 18FEFC21#FF73F0FFFFFFFFFF
(1715022789.971321) can0 18FEC1EE#53FAF20000000000
(1715022789.972070) can0 18FEE6EE#240D1605FF277D7D
(1715022789.972699) can0 18FE6CEE#7A508000FFFF3775
(1715022789.973403) can0 18FEC1EE#53FAF20000000000
(1715022789.974036) can0 18FEE6EE#240D1605FF277D7D
(1715022789.974661) can0 18FEF227#FFFFFFFFFFFF00FF
(1715022789.975446) can0 18FECA27#00FF000000000000
(1715022789.976184) can0 18FE6CEE#7A508000FFFF3775
(1715022789.976809) can0 18F00010#007D7DF4107D007D
(1715022789.977558) can0 18F00503#89FFFF897E7E0040
(1715022789.978295) can0 18FEF227#FFFFFFFFFFFF00FF
(1715022789.978930) can0 18FEC1EE#53FAF20000000000
(1715022789.979682) can0 18FECA27#00FF000000000000
(1715022789.980290) can0 18FEE6EE#240D1605FF277D7D
(1715022789.981895) can0 18FECA0B#00FF000000000000
(1715022789.982559) can0 18F0010B#4006000000410B4F
(1715022789.983297) can0 18FECA0B#00FF000000000000
(1715022789.983895) can0 18FEF600#FF00FFFFFFFFFFFF
(1715022789.984684) can0 18FEEE00#83FF2C2EFFFFFFFF
(1715022789.985290) can0 18FEF500#FFFFFFFF24FFFFFF
(1715022789.986058) can0 18FECA00#00FF000000000000
(1715022789.986662) can0 18F00400#F17DFFE933FFF0FF
(1715022789.987430) can0 18FEF100#4300000400FF1FFF
(1715022789.988065) can0 18FEF600#FF00FFFFFFFFFFFF
(1715022789.988786) can0 18FEEE00#83FF2C2EFFFFFFFF
(1715022789.989439) can0 18FEF500#FFFFFFFF24FFFFFF
(1715022789.990163) can0 18FECA00#00FF000000000000
(1715022789.990937) can0 18FEAE30#FFFF7171FFFFFFFF
(1715022789.991563) can0 18FEAE30#FFFF7171FFFFFFFF
(1715022789.992315) can0 18FFA221#FFFFCCFFFFFFFFF0
(1715022789.993069) can0 18FFA321#F0CFF4FFFFFFFFFF
(1715022789.993696) can0 18FECA21#00FF000000000000
(1715022789.994430) can0 18FFA121#CFFFFFFFFFFFFFFF
(1715022789.995037) can0 18FEFC21#FF73F0FFFFFFFFFF
(1715022789.995807) can0 18FFA221#FFFFCCFFFFFFFFF0
(1715022789.998919) can0 18F00400#F17DFFE933FFF0FF
(1715022789.999683) can0 18FE6CEE#7A508000FFFF3775
(1715022790.000322) can0 18F0010B#4006000000410B4F
(1715022790.001056) can0 18F00010#007D7DF4107D007D
(1715022790.001667) can0 18FEF100#4300000400FF1FFF
(1715022790.002421) can0 18F00503#89FFFF897E7E0040
(1715022790.003047) can0 18FEF227#FFFFFFFFFFFF00FF
(1715022790.003809) can0 18FEF600#FF00FFFFFFFFFFFF
(1715022790.004437) can0 18FEEE00#83FF2C2EFFFFFFFF
(1715022790.005168) can0 18FEF500#FFFFFFFF24FFFFFF
(1715022790.005933) can0 18FEAE30#FFFF7171FFFFFFFF
(1715022790.006547) can0 18FEC1EE#53FAF20000000000
(1715022790.009057) can0 18FECA00#00FF000000000000
(1715022790.009945) can0 18FFA321#F0CFF4FFFFFFFFFF
(1715022790.010548) can0 18FECA21#00FF000000000000
(1715022790.011305) can0 18FFA121#CFFFFFFFFFFFFFFF
(1715022790.012056) can0 18FEFC21#FF73F0FFFFFFFFFF
(1715022790.012695) can0 18FFA221#FFFFCCFFFFFFFFF0
(1715022790.013430) can0 18FFA321#F0CFF4FFFFFFFFFF
(1715022790.014068) can0 18FECA21#00FF000000000000
(1715022790.014808) can0 18FFA121#CFFFFFFFFFFFFFFF
(1715022790.015448) can0 18FECA27#00FF000000000000
(1715022790.016178) can0 18F00400#F17DFFE933FFF0FF
(1715022790.016816) can0 18F00010#007D7DF4107D007D
(1715022790.017433) can0 18FEF100#4300000400FF1FFF
(1715022790.018061) can0 18EBFF17#01C0FF53F784FE44
(1715022790.018681) can0 18F00503#89FFFF897E7E0040
(1715022790.019312) can0 18FEFC21#FF73F0FFFFFFFFFF
(1715022790.020039) can0 18FEF227#FFFFFFFFFFFF00FF
(1715022790.020659) can0 18FFA221#FFFFCCFFFFFFFFF0
(1715022790.021422) can0 18FFA321#F0CFF4FFFFFFFFFF
(1715022790.022227) can0 18FECA0B#00FF000000000000
(1715022790.022781) can0 18F0010B#4006000000410B4F
(1715022790.023560) can0 18FECA0B#00FF000000000000
(1715022790.024150) can0 18FEE6EE#280D1605FF277D7D
(1715022790.024930) can0 18FE6CEE#7A508000FFFF3775
(1715022790.025545) can0 18FEC1EE#53FAF20000000000
(1715022790.026189) can0 18FEE6EE#280D1605FF277D7D
(1715022790.026929) can0 18FEF600#FF00FFFFFFFFFFFF
(1715022790.027698) can0 18FEEE00#83FF2C2EFFFFFFFF
(1715022790.028306) can0 18FEF500#FFFFFFFF24FFFFFF
(1715022790.029055) can0 18FECA00#00FF000000000000
(1715022790.029696) can0 18FEAE30#FFFF7171FFFFFFFF
(1715022790.030311) can0 18FECA27#00FF000000000000
(1715022790.031059) can0 18F00400#F17DFFE933FFF0FF
(1715022790.031660) can0 18FE6CEE#7A508000FFFF3775
(1715022790.032430) can0 18F0010B#4006000000410B4F
(1715022790.033058) can0 18F00010#007D7DF4107D007D
(1715022790.033786) can0 18FEF100#4300000400FF1FFF
(1715022790.034448) can0 18F00503#89FFFF897E7E0040
(1715022790.035180) can0 18FEF227#FFFFFFFFFFFF00FF
(1715022790.035905) can0 18FEF600#FF00FFFFFFFFFFFF
(1715022790.036558) can0 18FEEE00#83FF2C2EFFFFFFFF
(1715022790.037189) can0 18FEF500#FFFFFFFF24FFFFFF
(1715022790.037911) can0 18FECA21#00FF000000000000
(1715022790.038681) can0 18FFA121#CFFFFFFFFFFFFFFF
(1715022790.039305) can0 18FEFC21#FF73F0FFFFFFFFFF
(1715022790.039908) can0 18FFA221#FFFFCCFFFFFFFFF0
(1715022790.040681) can0 18FFA321#F0CFF4FFFFFFFFFF
(1715022790.041427) can0 18FECA21#00FF000000000000
(1715022790.042033) can0 18FFA121#CFFFFFFFFFFFFFFF
(1715022790.042805) can0 18FECA0B#00FF000000000000
(1715022790.045567) can0 18FECA00#00FF000000000000
(1715022790.046293) can0 18F00400#F17DFFE933FFF0FF
(1715022790.046930) can0 18F0010B#4006000000410B4F
(1715022790.047681) can0 18F00010#007D7DF4107D007D
(1715022790.048281) can0 18FEF100#4300000400FF1FFF
(1715022790.049054) can0 18F00503#89FFFF897E7E0040
(1715022790.049679) can0 18FEFC21#FF73F0FFFFFFFFFF
(1715022790.050407) can0 18FFA221#FFFFCCFFFFFFFFF0
(1715022790.051072) can0 18FFA321#F0CFF4FFFFFFFFFF
(1715022790.051786) can0 18FEF600#FF00FFFFFFFFFFFF
(1715022790.052429) can0 18FEEE00#83FF2C2EFFFFFFFF
(1715022790.053178) can0 18FEF500#FFFFFFFF24FFFFFF
(1715022790.053932) can0 18FEC1EE#53FAF20000000000
(1715022790.054539) can0 18FEE6EE#280D1605FF277D7D
(1715022790.055303) can0 18FE6CEE#7A508000FFFF3775
(1715022790.055912) can0 18FEAE30#FFFF7171FFFFFFFF
(1715022790.056681) can0 18FEAE30#FFFF7171FFFFFFFF
(1715022790.057431) can0 18FECA27#00FF000000000000
(1715022790.058041) can0 18FEF227#FFFFFFFFFFFF00FF
(1715022790.058814) can0 18FECA27#00FF000000000000
(1715022790.059556) can0 18FECA0B#00FF000000000000
(1715022790.060556) can0 18F0010B#4006000000410B4F
(1715022790.061280) can0 18F00010#007D7DF4107D007D
(1715022790.061909) can0 18F00503#89FFFF897E7E0040
(1715022790.062650) can0 18FEF227#FFFFFFFFFFFF00FF
(1715022790.063437) can0 18FEAE30#FFFF7171FFFFFFFF
(1715022790.064161) can0 18FECA0B#00FF000000000000
(1715022790.064806) can0 18FECA27#00FF000000000000
(1715022790.065554) can0 18FECA21#00FF000000000000
(1715022790.066283) can0 18FFA121#CFFFFFFFFFFFFFFF
(1715022790.066939) can0 18FEFC21#FF73F0FFFFFFFFFF
(1715022790.067681) can0 18FFA221#FFFFCCFFFFFFFFF0
(1715022790.068408) can0 18FFA321#F0CFF4FFFFFFFFFF
(1715022790.068932) can0 18FFA117#0300C3004C00C0FF
(1715022790.069405) can0 18EBFF17#0201248143F5C4FE
(1715022790.070061) can0 18FECA21#00FF000000000000
(1715022790.070819) can0 18FFA121#CFFFFFFFFFFFFFFF
(1715022790.071555) can0 18FECA00#00FF000000000000
(1715022790.072302) can0 18F00400#F17DFFE933FFF0FF
(1715022790.072944) can0 18FEF100#4300000400FF1FFF
(1715022790.073680) can0 18FEC1EE#53FAF20000000000
(1715022790.074303) can0 18FEE6EE#280D1605FF277D7D
(1715022790.075070) can0 18FE6CEE#7A508000FFFF3775
(1715022790.075663) can0 18FEC1EE#53FAF20000000000
(1715022790.076430) can0 18FEE6EE#280D1605FF277D7D
(1715022790.077058) can0 18FE6CEE#7A508000FFFF3775
(1715022790.077807) can0 18F0010B#4006000000410B4F
(1715022790.078434) can0 18F00010#007D7DF4107D007D
(1715022790.079199) can0 18F00503#89FFFF897E7E0040
(1715022790.079822) can0 18FEFC21#FF73F0FFFFFFFFFF
(1715022790.080555) can0 18FEF227#FFFFFFFFFFFF00FF
(1715022790.081291) can0 18FFA221#FFFFCCFFFFFFFFF0
(1715022790.081925) can0 18FFA321#F0CFF4FFFFFFFFFF
(1715022790.082689) can0 18FEAE30#FFFF7171FFFFFFFF
(1715022790.088930) can0 18FEC1EE#53FAF20000000000
(1715022790.089570) can0 18FEE6EE#280D1605FF277D7D
(1715022790.090317) can0 18FEF600#FF00FFFFFFFFFFFF
(1715022790.091054) can0 18FEEE00#83FF2C2EFFFFFFFF
(1715022790.091807) can0 18FEF500#FFFFFFFF24FFFFFF
(1715022790.092554) can0 18FECA00#00FF000000000000
(1715022790.093304) can0 18F00400#F17DFFE933FFF0FF
(1715022790.093943) can0 18FEF100#4300000400FF1FFF
(1715022790.094661) can0 18FEF600#FF00FFFFFFFFFFFF
(1715022790.095430) can0 18FEEE00#83FF2C2EFFFFFFFF
(1715022790.096071) can0 18FEF500#FFFFFFFF24FFFFFF
(1715022790.096804) can0 18FECA00#00FF000000000000
(1715022790.097522) can0 18FECA0B#00FF000000000000
(1715022790.098773) can0 18F00400#F17DFFE933FFF0FF
(1715022790.099535) can0 18FE6CEE#7A508000FFFF3775
(1715022790.100281) can0 18F0010B#4006000000410B4F
(1715022790.101025) can0 18F00010#007D7DF4107D007D
(1715022790.101660) can0 18FEF100#4300000400FF1FFF
(1715022790.102411) can0 18F00503#89FFFF897E7E0040
(1715022790.103173) can0 18FEF600#FF00FFFFFFFFFFFF
(1715022790.103909) can0 18FEEE00#83FF2C2EFFFFFFFF
(1715022790.104542) can0 18FEF500#FFFFFFFF24FFFFFF
(1715022790.105286) can0 18FEAE30#FFFF7171FFFFFFFF
(1715022790.105952) can0 18FEC1EE#53FAF20000000000
(1715022790.106661) can0 18FECA00#00FF000000000000
(1715022790.109933) can0 18FECA21#00FF000000000000
(1715022790.110671) can0 18FFA121#CFFFFFFFFFFFFFFF
(1715022790.111310) can0 18FEFC21#FF73F0FFFFFFFFFF
(1715022790.112040) can0 18FFA221#FFFFCCFFFFFFFFF0
(1715022790.112806) can0 18FFA321#F0CFF4FFFFFFFFFF
(1715022790.113523) can0 18FECA21#00FF000000000000
(1715022790.114306) can0 18FFA121#CFFFFFFFFFFFFFFF
(1715022790.114925) can0 18FEE6EE#280D1605FF277D7D
(1715022790.115662) can0 18F00400#F17DFFE933FFF0FF
(1715022790.116293) can0 18FE6CEE#7A508000FFFF3775
(1715022790.117054) can0 18F00010#007D7DF4107D007D
(1715022790.117660) can0 18FEF100#4300000400FF1FFF
(1715022790.118306) can0 18EBFF17#0343F86481FFFFFF
(1715022790.118932) can0 18F00503#89FFFF897E7E0040
(1715022790.119528) can0 18FEFC21#FF73F0FFFFFFFFFF
(1715022790.120307) can0 18FFA221#FFFFCCFFFFFFFFF0
(1715022790.121056) can0 18FFA321#F0CFF4FFFFFFFFFF
(1715022790.121682) can0 18FEF600#FF00FFFFFFFFFFFF
(1715022790.122934) can0 18FECA27#00FF000000000000
(1715022790.123682) can0 18FEF227#FFFFFFFFFFFF00FF
(1715022790.124311) can0 18FECA27#00FF000000000000
(1715022790.125063) can0 18FEF227#FFFFFFFFFFFF00FF
(1715022790.125806) can0 18FECA27#00FF000000000000
(1715022790.126560) can0 18FEEE00#83FF2C2EFFFFFFFF
(1715022790.127164) can0 18FEF500#FFFFFFFF24FFFFFF
(1715022790.127934) can0 18FECA00#00FF000000000000
(1715022790.128682) can0 18FECA21#00FF000000000000
(1715022790.129314) can0 18FFA121#CFFFFFFFFFFFFFFF
(1715022790.130034) can0 18F00400#F17DFFE933FFF0FF
(1715022790.130806) can0 18F00010#007D7DF4107D007D
(1715022790.131422) can0 18FEF100#4300000400FF1FFF
(1715022790.132158) can0 18F00503#89FFFF897E7E0040
(1715022790.132933) can0 18FEFC21#FF73F0FFFFFFFFFF
(1715022790.133558) can0 18FEF227#FFFFFFFFFFFF00FF
(1715022790.134283) can0 18FFA221#FFFFCCFFFFFFFFF0
(1715022790.135057) can0 18FFA321#F0CFF4FFFFFFFFFF
(1715022790.135689) can0 18FEF600#FF00FFFFFFFFFFFF
(1715022790.136409) can0 18FEEE00#83FF2C2EFFFFFFFF
(1715022790.137181) can0 18FECA0B#00FF000000000000
(1715022790.137921) can0 18F0010B#4006000000410B4F
(1715022790.138537) can0 18FECA0B#00FF000000000000
(1715022790.139305) can0 18FEC1EE#53FAF20000000000
(1715022790.139947) can0 18FEE6EE#280D1605FF277D7D
(1715022790.140658) can0 18FE6CEE#7A508000FFFF3775
(1715022790.141424) can0 18FEC1EE#53FAF20000000000
(1715022790.142021) can0 18FEE6EE#280D1605FF277D7D
(1715022790.142791) can0 18FEAE30#FFFF7171FFFFFFFF
(1715022790.143453) can0 18FEAE30#FFFF7171FFFFFFFF
(1715022790.144186) can0 18F0010B#4006000000410B4F
(1715022790.144918) can0 18FECA0B#00FF000000000000
(1715022790.145683) can0 18FEF500#FFFFFFFF24FFFFFF
(1715022790.146299) can0 18FECA00#00FF000000000000
(1715022790.147059) can0 18FECA27#00FF000000000000
(1715022790.147690) can0 18F00400#F17DFFE933FFF0FF
(1715022790.148433) can0 18FE6CEE#7A508000FFFF3775
(1715022790.149200) can0 18F0010B#4006000000410B4F
(1715022790.149933) can0 18F00010#007D7DF4107D007D
(1715022790.150687) can0 18FEF100#4300000400FF1FFF
(1715022790.151289) can0 18F00503#89FFFF897E7E0040
(1715022790.152056) can0 18FEF227#FFFFFFFFFFFF00FF
(1715022790.153036) can0 18FECA21#00FF000000000000
(1715022790.153819) can0 18FFA121#CFFFFFFFFFFFFFFF
(1715022790.154406) can0 18FEFC21#FF73F0FFFFFFFFFF
(1715022790.155170) can0 18FFA221#FFFFCCFFFFFFFFF0
(1715022790.155930) can0 18FFA321#F0CFF4FFFFFFFFFF
(1715022790.156682) can0 18FECA21#00FF000000000000
(1715022790.157432) can0 18FFA121#CFFFFFFFFFFFFFFF
(1715022790.158325) can0 18FECA0B#00FF000000000000
(1715022790.161059) can0 18F0010B#4006000000410B4F
(1715022790.161806) can0 18F00010#007D7DF4107D007D
(1715022790.162443) can0 18F00503#89FFFF897E7E0040
(1715022790.163169) can0 18FEFC21#FF73F0FFFFFFFFFF
(1715022790.163933) can0 18FFA221#FFFFCCFFFFFFFFF0
(1715022790.164565) can0 18FFA321#F0CFF4FFFFFFFFFF
(1715022790.165293) can0 18FECA0B#00FF000000000000
(1715022790.166059) can0 18FECA21#00FF000000000000
(1715022790.166785) can0 18FFA121#CFFFFFFFFFFFFFFF
(1715022790.167434) can0 18FEAE30#FFFF7171FFFFFFFF
(1715022790.168183) can0 18FEAE30#FFFF7171FFFFFFFF
(1715022790.168910) can0 18FECA27#00FF000000000000
(1715022790.169544) can0 18FEF227#FFFFFFFFFFFF00FF
(1715022790.170293) can0 18FECA27#00FF000000000000
(1715022790.171019) can0 18FEC1EE#53FAF20000000000
(1715022790.171674) can0 18FEE6EE#280D1605FF277D7D
(1715022790.172430) can0 18FE6CEE#7A508000FFFF3775
(1715022790.173035) can0 18FEC1EE#53FAF20000000000
(1715022790.173808) can0 18FEE6EE#280D1605FF277D7D
(1715022790.174546) can0 18FEF600#FF00FFFFFFFFFFFF
(1715022790.175287) can0 18FEEE00#83FF2C2EFFFFFFFF
(1715022790.175917) can0 18FEF500#FFFFFFFF24FFFFFF
(1715022790.176682) can0 18FECA00#00FF000000000000
(1715022790.177287) can0 18FE6CEE#7A508000FFFF3775
(1715022790.178067) can0 18F0010B#4006000000410B4F
(1715022790.178808) can0 18F00010#007D7DF4107D007D
(1715022790.179411) can0 18F00503#89FFFF897E7E0040
(1715022790.180201) can0 18FEFC21#FF73F0FFFFFFFFFF
(1715022790.180903) can0 18FEF227#FFFFFFFFFFFF00FF
(1715022790.181689) can0 18FFA221#FFFFCCFFFFFFFFF0
(1715022790.182296) can0 18FFA321#F0CFF4FFFFFFFFFF
(1715022790.183045) can0 18FEAE30#FFFF7171FFFFFFFF
(1715022790.183663) can0 18F00400#F17DFFE933FFF0FF
(1715022790.184433) can0 18FEF100#4300000400FF1FFF
(1715022790.185181) can0 18FEF600#FF00FFFFFFFFFFFF
(1715022790.185931) can0 18FEEE00#83FF2C2EFFFFFFFF
(1715022790.186555) can0 18FEF500#FFFFFFFF24FFFFFF
(1715022790.187306) can0 18FECA00#00FF000000000000
(1715022790.187945) can0 18F00400#F17DFFE933FFF0FF
(1715022790.188683) can0 18FEF100#4300000400FF1FFF
(1715022790.189432) can0 18FEF600#FF00FFFFFFFFFFFF
(1715022790.190058) can0 18FECA27#00FF000000000000
(1715022790.190823) can0 18FECA0B#00FF000000000000
(1715022790.191557) can0 18FEC1EE#53FAF20000000000
(1715022790.192306) can0 18FEE6EE#280D1605FF277D7D
(1715022790.192916) can0 18FE6CEE#7A508000FFFF3775
(1715022790.193684) can0 18F0010B#4006000000410B4F
(1715022790.194314) can0 18F00010#007D7DF4107D007D
(1715022790.195073) can0 18F00503#89FFFF897E7E0040
(1715022790.195805) can0 18FEF227#FFFFFFFFFFFF00FF
(1715022790.196555) can0 18FEAE30#FFFF7171FFFFFFFF
(1715022790.197286) can0 18FEC1EE#53FAF20000000000
(1715022790.197916) can0 18FECA0B#00FF000000000000
(1715022790.198662) can0 18FECA27#00FF000000000000
(1715022790.199315) can0 18FECA21#00FF000000000000
(1715022790.200043) can0 18FEEE00#83FF2C2EFFFFFFFF
(1715022790.209920) can0 18FEE6EE#280D1605FF277D7D
(1715022790.211435) can0 18FEF500#FFFFFFFF24FFFFFF
(1715022790.212039) can0 18FECA00#00FF000000000000
(1715022790.212805) can0 18F00400#F17DFFE933FFF0FF
(1715022790.213437) can0 18FEF100#4300000400FF1FFF
(1715022790.214322) can0 18FEF600#FF00FFFFFFFFFFFF
(1715022790.214941) can0 18FEEE00#83FF2C2EFFFFFFFF
(1715022790.215701) can0 18FEF500#FFFFFFFF24FFFFFF
(1715022790.216432) can0 18FECA00#00FF000000000000
(1715022790.217169) can0 18FFA121#CFFFFFFFFFFFFFFF
(1715022790.217918) can0 18FEFC21#FF73F0FFFFFFFFFF
(1715022790.218682) can0 18FFA221#FFFFCCFFFFFFFFF0
(1715022790.219411) can0 18FFA321#F0CFF4FFFFFFFFFF
(1715022790.220058) can0 18FECA21#00FF000000000000
(1715022790.220806) can0 18F00400#F17DFFE933FFF0FF
(1715022790.221405) can0 18FE6CEE#7A508000FFFF3775
(1715022790.222297) can0 18F0010B#4006000000410B4F
(1715022790.223420) can0 18FFA121#CFFFFFFFFFFFFFFF
(1715022790.224177) can0 18FEFC21#FF73F0FFFFFFFFFF
(1715022790.224929) can0 18FFA221#FFFFCCFFFFFFFFF0
(1715022790.225560) can0 18FFA321#F0CFF4FFFFFFFFFF
(1715022790.226308) can0 18FECA21#00FF000000000000
(1715022790.226920) can0 18FFA121#CFFFFFFFFFFFFFFF
(1715022790.227690) can0 18F00010#007D7DF4107D007D
(1715022790.228431) can0 18FECA0B#00FF000000000000
(1715022790.229181) can0 18FEF227#FFFFFFFFFFFF00FF
(1715022790.229910) can0 18FECA27#00FF000000000000
(1715022790.230549) can0 18FEC1EE#53FAF20000000000
(1715022790.231193) can0 18FEE6EE#280D1605FF277D7D
(1715022790.231927) can0 18FE6CEE#7A508000FFFF3775
(1715022790.232683) can0 18F0010B#4006000000410B4F
(1715022790.233315) can0 18F00010#007D7DF4107D007D
(1715022790.234033) can0 18FEFC21#FF73F0FFFFFFFFFF
(1715022790.234806) can0 18FEF227#FFFFFFFFFFFF00FF
(1715022790.235414) can0 18FFA221#FFFFCCFFFFFFFFF0
(1715022790.236157) can0 18FFA321#F0CFF4FFFFFFFFFF
(1715022790.236932) can0 18FEC1EE#53FAF20000000000
(1715022790.237564) can0 18FECA0B#00FF000000000000
(1715022790.238284) can0 18FEF100#4300000400FF1FFF
(1715022790.239059) can0 18FEF600#FF00FFFFFFFFFFFF
(1715022790.239807) can0 18FEEE00#83FF2C2EFFFFFFFF
(1715022790.240410) can0 18FEF500#FFFFFFFF24FFFFFF
(1715022790.241202) can0 18F00503#89FFFF897E7E0040
(1715022790.241933) can0 18F00503#89FFFF897E7E0040
(1715022790.242556) can0 18FEAE30#FFFF7171FFFFFFFF
(1715022790.243291) can0 18FEAE30#FFFF7171FFFFFFFF
(1715022790.244056) can0 18FEE6EE#280D1605FF277D7D
(1715022790.244660) can0 18FECA00#00FF000000000000
(1715022790.245432) can0 18F00400#F17DFFE933FFF0FF
(1715022790.246075) can0 18FEF100#4300000400FF1FFF
(1715022790.246787) can0 18FEF600#FF00FFFFFFFFFFFF
(1715022790.247558) can0 18FEEE00#83FF2C2EFFFFFFFF
(1715022790.248184) can0 18FEF500#FFFFFFFF24FFFFFF
(1715022790.248913) can0 18FECA00#00FF000000000000
(1715022790.249565) can0 18F00400#F17DFFE933FFF0FF
(1715022790.250287) can0 18FE6CEE#7A508000FFFF3775
(1715022790.251041) can0 18F0010B#4006000000410B4F
(1715022790.251682) can0 18F00010#007D7DF4107D007D
(1715022790.252417) can0 18FEF100#4300000400FF1FFF
(1715022790.253164) can0 18F00503#89FFFF897E7E0040
(1715022790.254919) can0 18FECA21#00FF000000000000
(1715022790.255658) can0 18FECA27#00FF000000000000
(1715022790.256429) can0 18FFA121#CFFFFFFFFFFFFFFF
(1715022790.257062) can0 18FEF227#FFFFFFFFFFFF00FF
(1715022790.257809) can0 18FEFC21#FF73F0FFFFFFFFFF
(1715022790.258431) can0 18FECA27#00FF000000000000
(1715022790.259205) can0 18FFA221#FFFFCCFFFFFFFFF0
(1715022790.259931) can0 18FFA321#F0CFF4FFFFFFFFFF
(1715022790.260682) can0 18FECA21#00FF000000000000
(1715022790.261305) can0 18FFA121#CFFFFFFFFFFFFFFF
(1715022790.262046) can0 18F00010#007D7DF4107D007D
(1715022790.262668) can0 18F00503#89FFFF897E7E0040
(1715022790.263406) can0 18FEFC21#FF73F0FFFFFFFFFF
(1715022790.264156) can0 18FEF227#FFFFFFFFFFFF00FF
(1715022790.264948) can0 18FFA221#FFFFCCFFFFFFFFF0
(1715022790.265541) can0 18FFA321#F0CFF4FFFFFFFFFF
(1715022790.266307) can0 18FECA21#00FF000000000000
(1715022790.267057) can0 18FECA27#00FF000000000000
(1715022790.267785) can0 18FFA121#CFFFFFFFFFFFFFFF
(1715022790.268416) can0 18FECA0B#00FF000000000000
(1715022790.269190) can0 18F0010B#4006000000410B4F
(1715022790.269899) can0 18FECA0B#00FF000000000000
(1715022790.270553) can0 18FEC1EE#53FAF20000000000
(1715022790.271308) can0 18FEE6EE#280D1605FF277D7D
(1715022790.271910) can0 18FE6CEE#7A508000FFFF3775
(1715022790.272682) can0 18FEC1EE#53FAF20000000000
(1715022790.273430) can0 18FEAE30#FFFF7171FFFFFFFF
(1715022790.274032) can0 18FEAE30#FFFF7171FFFFFFFF
(1715022790.274816) can0 18FEF600#FF00FFFFFFFFFFFF
(1715022790.275556) can0 18FEEE00#83FF2C2EFFFFFFFF
(1715022790.276310) can0 18FEF500#FFFFFFFF24FFFFFF
(1715022790.276928) can0 18FECA00#00FF000000000000
(1715022790.277681) can0 18F00400#F17DFFE933FFF0FF
(1715022790.278447) can0 18FEF100#4300000400FF1FFF
(1715022790.279059) can0 18F0010B#4006000000410B4F
(1715022790.279806) can0 18F00010#007D7DF4107D007D
(1715022790.280570) can0 18F00503#89FFFF897E7E0040
(1715022790.281308) can0 18FEFC21#FF73F0FFFFFFFFFF
(1715022790.281915) can0 18FEF227#FFFFFFFFFFFF00FF
(1715022790.282682) can0 18FFA221#FFFFCCFFFFFFFFF0
(1715022790.283308) can0 18FFA321#F0CFF4FFFFFFFFFF
(1715022790.284076) can0 18FEAE30#FFFF7171FFFFFFFF
(1715022790.284807) can0 18FEE6EE#280D1605FF277D7D
(1715022790.285429) can0 18FE6CEE#7A508000FFFF3775
(1715022790.286192) can0 18FEC1EE#53FAF20000000000
(1715022790.286932) can0 18FEE6EE#280D1605FF277D7D
(1715022790.291548) can0 18FEF600#FF00FFFFFFFFFFFF
(1715022790.292308) can0 18FEEE00#83FF2C2EFFFFFFFF
(1715022790.293070) can0 18FEF500#FFFFFFFF24FFFFFF
(1715022790.293668) can0 18FECA00#00FF000000000000
(1715022790.294428) can0 18F00400#F17DFFE933FFF0FF
(1715022790.295183) can0 18FEF100#4300000400FF1FFF
(1715022790.295934) can0 18FEF600#FF00FFFFFFFFFFFF
(1715022790.296569) can0 18FEEE00#83FF2C2EFFFFFFFF
(1715022790.297307) can0 18FEF500#FFFFFFFF24FFFFFF
(1715022790.297933) can0 18FECA00#00FF000000000000
(1715022790.298661) can0 18F00400#F17DFFE933FFF0FF
(1715022790.299311) can0 18FE6CEE#7A508000FFFF3775
(1715022790.300057) can0 18FECA27#00FF000000000000
(1715022790.300805) can0 18FEF227#FFFFFFFFFFFF00FF
(1715022790.301426) can0 18FECA27#00FF000000000000
(1715022790.302163) can0 18FECA21#00FF000000000000
(1715022790.302935) can0 18FFA121#CFFFFFFFFFFFFFFF
(1715022790.303686) can0 18FEFC21#FF73F0FFFFFFFFFF
(1715022790.304445) can0 18FFA221#FFFFCCFFFFFFFFF0
(1715022790.305060) can0 18FECA0B#00FF000000000000
(1715022790.305807) can0 18F0010B#4006000000410B4F
(1715022790.306526) can0 18FECA0B#00FF000000000000
(1715022790.307306) can0 18FEAE30#FFFF7171FFFFFFFF
(1715022790.307933) can0 18F00010#007D7DF4107D007D
(1715022790.308662) can0 18FEF100#4300000400FF1FFF
(1715022790.309315) can0 18FEF600#FF00FFFFFFFFFFFF
(1715022790.310074) can0 18FEEE00#83FF2C2EFFFFFFFF
(1715022790.310793) can0 18FEF500#FFFFFFFF24FFFFFF
(1715022790.311558) can0 18FEC1EE#53FAF20000000000
(1715022790.312166) can0 18FEE6EE#280D1605FF277D7D
(1715022790.312937) can0 18F00503#89FFFF897E7E0040
(1715022790.313682) can0 18FFA321#F0CFF4FFFFFFFFFF
(1715022790.314289) can0 18FECA21#00FF000000000000
(1715022790.315057) can0 18FFA121#CFFFFFFFFFFFFFFF
(1715022790.315807) can0 18FE6CEE#7A508000FFFF3775
(1715022790.316447) can0 18F0010B#4006000000410B4F
(1715022790.317181) can0 18F00010#007D7DF4107D007D
(1715022790.317826) can0 18F00503#89FFFF897E7E0040
(1715022790.318549) can0 18FEFC21#FF73F0FFFFFFFFFF
(1715022790.319182) can0 18FEF227#FFFFFFFFFFFF00FF
(1715022790.319936) can0 18FFA221#FFFFCCFFFFFFFFF0
(1715022790.320680) can0 18FFA321#F0CFF4FFFFFFFFFF
(1715022790.321298) can0 18FEAE30#FFFF7171FFFFFFFF
(1715022790.322057) can0 18FEC1EE#53FAF20000000000
(1715022790.322693) can0 18FECA0B#00FF000000000000
(1715022790.323448) can0 18FECA21#00FF000000000000
(1715022790.324931) can0 18FECA00#00FF000000000000
(1715022790.325543) can0 18F00400#F17DFFE933FFF0FF
(1715022790.326306) can0 18FEF100#4300000400FF1FFF
(1715022790.327057) can0 18FEF600#FF00FFFFFFFFFFFF
(1715022790.327685) can0 18FEEE00#83FF2C2EFFFFFFFF
(1715022790.328450) can0 18FEF500#FFFFFFFF24FFFFFF
(1715022790.329182) can0 18FECA00#00FF000000000000
(1715022790.331421) can0 18F00400#F17DFFE933FFF0FF
(1715022790.332306) can0 18F0010B#4006000000410B4F
(1715022790.332950) can0 18F00010#007D7DF4107D007D
(1715022790.333661) can0 18FEF100#4300000400FF1FFF
(1715022790.334290) can0 18F00503#89FFFF897E7E0040
(1715022790.335072) can0 18FEF600#FF00FFFFFFFFFFFF
(1715022790.335786) can0 18FEEE00#83FF2C2EFFFFFFFF
(1715022790.336554) can0 18FEF500#FFFFFFFF24FFFFFF
(1715022790.337305) can0 18FEAE30#FFFF7171FFFFFFFF
(1715022790.338056) can0 18FECA00#00FF000000000000
(1715022790.338806) can0 18FECA0B#00FF000000000000
(1715022790.339432) can0 18FEE6EE#280D1605FF277D7D
(1715022790.340201) can0 18FFA121#CFFFFFFFFFFFFFFF
(1715022790.340930) can0 18FEFC21#FF73F0FFFFFFFFFF
(1715022790.341656) can0 18FFA221#FFFFCCFFFFFFFFF0
(1715022790.342295) can0 18FFA321#F0CFF4FFFFFFFFFF
(1715022790.343022) can0 18FECA21#00FF000000000000
(1715022790.343803) can0 18FFA121#CFFFFFFFFFFFFFFF
(1715022790.344429) can0 18FECA27#00FF000000000000
(1715022790.345167) can0 18FEF227#FFFFFFFFFFFF00FF
(1715022790.345933) can0 18FECA27#00FF000000000000
(1715022790.346552) can0 18F00400#F17DFFE933FFF0FF
(1715022790.347306) can0 18F0010B#4006000000410B4F
(1715022790.348058) can0 18F00010#007D7DF4107D007D
(1715022790.348675) can0 18FEF100#4300000400FF1FFF
(1715022790.349432) can0 18F00503#89FFFF897E7E0040
(1715022790.350183) can0 18FEFC21#FF73F0FFFFFFFFFF
(1715022790.350827) can0 18FEF227#FFFFFFFFFFFF00FF
(1715022790.351558) can0 18FFA221#FFFFCCFFFFFFFFF0
(1715022790.352307) can0 18FFA321#F0CFF4FFFFFFFFFF
(1715022790.352917) can0 18FEF600#FF00FFFFFFFFFFFF
(1715022790.353663) can0 18FEEE00#83FF2C2EFFFFFFFF
(1715022790.354427) can0 18FEF500#FFFFFFFF24FFFFFF
(1715022790.356819) can0 18FE6CEE#7A508000FFFF3775
(1715022790.357558) can0 18FEC1EE#53FAF20000000000
(1715022790.358176) can0 18FEE6EE#280D1605FF277D7D
(1715022790.358907) can0 18FE6CEE#7A508000FFFF3775
(1715022790.359685) can0 18FEC1EE#53FAF20000000000
